;$FILEVERSION=1.1
;$STARTTIME=43592.5785546065
;
;   C:\Users\damor\Desktop\Ford Galaxy.trc
;
;   Start time: 2019-05-07 13:53:07.118.0
;   Generated by PCAN-View v4.2.1.533
;
;   Message Number
;   |         Time Offset (ms)
;   |         |        Type
;   |         |        |        ID (hex)
;   |         |        |        |     Data Length
;   |         |        |        |     |   Data Bytes (hex) ...
;   |         |        |        |     |   |
;---+--   ----+----  --+--  ----+---  +  -+ -- -- -- -- -- -- --
     1)         0.3  Rx         0186  8  14 04 01 F9 01 F7 00 00 
     2)         0.5  Rx         0187  8  D9 14 08 28 00 A0 03 00 
     3)         0.8  Rx         018A  8  00 20 10 01 31 00 00 00 
     4)         1.6  Rx         0091  8  7E F4 7E E8 19 08 F0 00 
     5)         1.9  Rx         0092  8  6F A7 6F 9F 73 75 02 08 
     6)         3.2  Rx         0078  8  04 0B 00 10 00 00 00 00 
     7)         4.8  Rx         0047  8  20 00 00 00 00 00 00 00 
     8)         5.0  Rx         0165  8  10 C0 00 00 00 00 00 00 
     9)         5.2  Rx         0167  8  00 80 00 08 00 19 DC 00 
    10)         5.7  Rx         0049  8  00 00 00 00 00 00 00 00 
    11)         5.9  Rx         0076  8  3E 65 C1 80 0F FF 00 00 
    12)         6.2  Rx         0077  8  00 00 07 FF 7F F7 F1 FF 
    13)         6.4  Rx         007D  8  00 00 F5 A0 00 20 07 FF 
    14)         6.6  Rx         0088  8  FF FC 82 00 00 00 00 00 
    15)         6.9  Rx         0213  8  FF FF 08 0C 80 01 FF 41 
    16)         7.2  Rx         0214  8  00 00 00 00 00 00 F5 A0 
    17)         7.4  Rx         0216  8  E3 CF E2 CE 82 00 00 00 
    18)         7.6  Rx         0217  8  00 00 00 00 00 00 00 00 
    19)         7.9  Rx         0415  8  00 00 FC ED 0F FE 0F FE 
    20)         8.1  Rx         04B0  8  D7 00 80 00 A0 00 08 F4 
    21)         8.6  Rx         0085  8  7C FB 00 00 F1 40 7D 16 
    22)         8.9  Rx         0200  8  00 00 7F F3 7F F3 00 00 
    23)         9.2  Rx         0202  8  04 F4 40 00 60 00 00 00 
    24)         9.5  Rx         0204  8  E0 00 7D C0 00 F4 00 00 
    25)        10.9  Rx         0230  8  00 00 00 FF 6D 36 F4 00 
    26)        11.6  Rx         0091  8  7E F3 7E EB 12 0D F0 00 
    27)        11.8  Rx         0092  8  6F A7 6F A0 73 89 E8 0D 
    28)        12.1  Rx         042F  8  CD 04 00 01 90 00 00 00 
    29)        14.1  Rx         03A8  8  01 00 26 F5 00 00 00 00 
    30)        14.4  Rx         023A  8  81 C0 DF 0F 88 03 E4 00 
    31)        14.7  Rx         0167  8  00 80 00 08 00 19 DC 00 
    32)        15.0  Rx         0204  8  E4 00 7D C0 00 F3 00 00 
    33)        15.7  Rx         0088  8  FF FC 82 00 00 00 00 00 
    34)        15.9  Rx         0217  8  00 00 00 00 00 00 00 00 
    35)        18.6  Rx         0082  8  80 08 14 00 79 80 00 00 
    36)        18.9  Rx         0085  8  7C FB 00 00 F0 50 7D 16 
    37)        20.2  Rx         0242  8  00 CE 1E 45 C2 00 00 01 
    38)        20.4  Rx         0186  8  14 04 01 F9 01 F7 00 00 
    39)        20.6  Rx         0187  8  D9 14 08 28 00 A0 03 00 
    40)        21.1  Rx         03D6  8  AA FF FE FE 00 00 FF 7F 
    41)        21.4  Rx         0091  8  7E F1 7E ED 0D 12 F0 00 
    42)        21.6  Rx         0092  8  6F A6 6F A0 73 6B 02 12 
    43)        21.8  Rx         03CA  8  FD 80 08 00 00 00 00 00 
    44)        23.3  Rx         0078  8  01 0A 80 10 00 00 00 00 
    45)        24.8  Rx         0047  8  20 00 00 00 00 00 00 00 
    46)        25.0  Rx         0165  8  10 C0 00 00 00 00 00 00 
    47)        25.3  Rx         0167  8  00 80 00 08 00 19 DC 00 
    48)        25.6  Rx         0049  8  00 00 00 00 00 00 00 00 
    49)        25.9  Rx         0076  8  3E 65 C1 80 0F FF 00 00 
    50)        26.1  Rx         0077  8  00 00 08 00 7F F7 F5 FF 
    51)        26.4  Rx         007D  8  00 00 F4 B0 00 20 37 FF 
    52)        26.6  Rx         0088  8  FF FC 82 00 00 00 00 00 
    53)        26.9  Rx         0213  8  FF FF 08 0C 80 01 FF 41 
    54)        27.1  Rx         0214  8  00 00 00 00 00 00 F4 B0 
    55)        27.3  Rx         0216  8  E3 CF E2 CE 82 00 00 00 
    56)        27.6  Rx         0217  8  00 00 00 00 00 00 00 00 
    57)        27.8  Rx         0415  8  00 00 C0 FC 0F FE 0F FE 
    58)        28.1  Rx         0416  8  53 00 FB 04 01 00 00 00 
    59)        28.3  Rx         0200  8  00 00 7F F3 7F F3 00 00 
    60)        28.6  Rx         0202  8  04 F2 50 00 60 00 00 00 
    61)        28.8  Rx         0085  8  7C FB 00 00 EF 60 7D 16 
    62)        29.0  Rx         0204  8  E8 00 7D C0 00 F2 00 00 
    63)        29.3  Rx         03CC  8  80 00 00 00 00 00 00 00 
    64)        29.5  Rx         04B0  8  D7 00 80 00 B0 00 08 F3 
    65)        30.1  Rx         0230  8  00 00 01 FE 6D 36 F4 00 
    66)        30.9  Rx         0334  8  24 72 72 00 00 FF 40 00 
    67)        31.4  Rx         004A  8  02 00 00 18 00 00 00 00 
    68)        31.6  Rx         004B  8  00 18 00 C0 18 D8 D8 00 
    69)        31.9  Rx         004C  8  20 AA A2 40 00 00 00 00 
    70)        32.1  Rx         0091  8  7E F2 7E EE 06 17 F0 00 
    71)        32.3  Rx         0092  8  6F A4 6F A0 73 75 F5 17 
    72)        32.6  Rx         042C  8  80 02 00 00 2D 50 00 00 
    73)        32.8  Rx         03A8  8  01 00 26 F5 00 00 00 00 
    74)        34.5  Rx         023A  8  81 C0 DF 0F 88 03 E4 00 
    75)        34.7  Rx         0167  8  00 80 00 08 00 19 DC 00 
    76)        35.2  Rx         0204  8  EC 00 7D C0 00 F1 00 00 
    77)        35.7  Rx         0088  8  FF FC 82 00 00 00 00 00 
    78)        35.9  Rx         0217  8  00 00 00 00 00 00 00 00 
    79)        36.2  Rx         0261  8  00 00 10 00 00 00 00 00 
    80)        36.4  Rx         042F  8  CD 04 00 01 90 00 00 00 
    81)        38.6  Rx         0082  8  80 08 14 00 79 80 00 00 
    82)        38.9  Rx         0085  8  7C FB 00 00 EE 70 7D 16 
    83)        40.0  Rx         0186  8  14 04 01 F9 01 F7 00 00 
    84)        40.3  Rx         0187  8  D8 14 08 28 00 B0 03 00 
    85)        41.7  Rx         0091  8  7E F1 7E ED 03 1C F0 00 
    86)        42.0  Rx         0092  8  6F A3 6F 9F 73 7F E8 1C 
    87)        43.2  Rx         0078  8  01 0A 80 10 00 00 00 00 
    88)        44.8  Rx         0047  8  20 00 00 00 00 00 00 00 
    89)        45.0  Rx         0165  8  10 C0 00 00 00 00 00 00 
    90)        45.3  Rx         0167  8  00 80 00 08 00 19 DC 00 
    91)        45.6  Rx         0049  8  00 00 00 00 00 00 00 00 
    92)        45.9  Rx         0076  8  3E 65 C1 80 0F FF 00 00 
    93)        46.1  Rx         0077  8  00 00 08 00 7F F7 F1 FF 
    94)        46.4  Rx         007D  8  00 00 F3 C0 00 1F D7 FF 
    95)        46.6  Rx         0088  8  FF FC 82 00 00 00 00 00 
    96)        46.9  Rx         0213  8  FF FF 08 0C 80 01 FF 41 
    97)        47.1  Rx         0214  8  00 00 00 00 00 00 F3 C0 
    98)        47.3  Rx         0216  8  E3 CF E2 CE 82 00 00 00 
    99)        47.6  Rx         0217  8  00 00 00 00 00 00 00 00 
   100)        47.9  Rx         0415  8  00 00 C4 FB 0F FE 0F FE 
   101)        48.1  Rx         04B0  8  D7 00 80 00 C0 00 08 F2 
   102)        48.3  Rx         0200  8  00 00 7F F3 7F F3 00 00 
   103)        48.6  Rx         0202  8  04 F0 60 00 60 00 00 00 
   104)        48.8  Rx         0085  8  7C FB 00 00 ED 80 7D 16 
   105)        49.0  Rx         0204  8  F0 00 7D C0 00 F0 00 00 
   106)        50.2  Rx         0230  8  00 00 02 FD 6D 36 F4 00 
   107)        51.1  Rx         03D6  8  AA FF FE FE 00 00 FF 7F 
   108)        51.4  Rx         03CA  8  FD 80 08 00 00 00 00 00 
   109)        51.7  Rx         0091  8  7E F2 7E ED FD 21 F0 00 
   110)        52.0  Rx         0092  8  6F A4 6F 9E 73 75 ED 21 
   111)        52.7  Rx         0083  8  00 00 00 00 00 00 00 00 
   112)        53.0  Rx         02A1  8  FF FF FF FF 00 00 00 00 
   113)        54.3  Rx         03A8  8  01 00 26 F5 00 00 00 00 
   114)        54.5  Rx         023A  8  81 C0 DF 0F 88 03 E4 00 
   115)        54.8  Rx         0167  8  00 80 00 08 00 19 DC 00 
   116)        55.0  Rx         0204  8  F4 00 7D C0 00 EF 00 00 
   117)        55.7  Rx         0088  8  FF FC 82 00 00 00 00 00 
   118)        55.9  Rx         0217  8  00 00 00 00 00 00 00 00 
   119)        58.6  Rx         0082  8  80 08 14 00 79 80 00 00 
   120)        58.9  Rx         0085  8  7C FB 00 00 EC 90 7D 16 
   121)        59.1  Rx         03CC  8  80 00 00 00 00 00 00 00 
   122)        59.6  Rx         0186  8  14 04 01 F9 01 F7 00 00 
   123)        59.8  Rx         0187  8  D8 14 08 28 00 B0 03 00 
   124)        60.1  Rx         0242  8  00 CE 1E 45 C2 00 00 01 
   125)        61.8  Rx         0091  8  7E F5 7E EC F6 26 F0 00 
   126)        62.0  Rx         0092  8  6F A6 6F A0 73 6B EE 26 
   127)        63.3  Rx         0078  8  00 0A 00 10 00 00 00 00 
   128)        64.8  Rx         0047  8  20 00 00 00 00 00 00 00 
   129)        65.0  Rx         0165  8  10 C0 00 00 00 00 00 00 
   130)        65.3  Rx         0167  8  00 80 00 08 00 19 DC 00 
   131)        65.6  Rx         0049  8  00 00 00 00 00 00 00 00 
   132)        65.9  Rx         0076  8  3E 65 C1 80 0F FF 00 00 
   133)        66.1  Rx         0077  8  00 00 08 00 7F F7 F1 FF 
   134)        66.4  Rx         007D  8  00 00 F2 D0 00 1F D7 FF 
   135)        66.6  Rx         0088  8  FF FC 82 00 00 00 00 00 
   136)        66.8  Rx         0213  8  FF FF 08 0C 80 01 FF 41 
   137)        67.1  Rx         0214  8  00 00 00 00 00 00 F2 D0 
   138)        67.3  Rx         0216  8  E3 CF E2 CE 82 00 00 00 
   139)        67.6  Rx         0217  8  00 00 00 00 00 00 00 00 
   140)        67.8  Rx         0415  8  00 00 C8 FA 0F FE 0F FE 
   141)        68.1  Rx         04B0  8  D7 00 80 00 D0 00 08 F1 
   142)        68.6  Rx         0085  8  7C FB 00 00 EB A0 7D 16 
   143)        69.0  Rx         0200  8  00 00 7F F3 7F F3 00 00 
   144)        69.2  Rx         0202  8  04 EE 70 00 60 00 00 00 
   145)        69.4  Rx         0204  8  F8 00 7D C0 00 EE 00 00 
   146)        70.9  Rx         0230  8  00 00 03 FC 6D 36 F4 00 
   147)        71.8  Rx         0091  8  7E F8 7E EB EF 2B F0 00 
   148)        72.1  Rx         0092  8  6F A7 6F A1 73 75 DD 2B 
   149)        72.3  Rx         042F  8  CD 04 00 01 90 00 00 00 
   150)        74.4  Rx         023A  8  81 C0 DF 0F 88 03 E4 00 
   151)        74.7  Rx         03A8  8  01 00 26 F5 00 00 00 00 
   152)        74.9  Rx         0167  8  00 80 00 08 00 19 DC 00 
   153)        75.2  Rx         0204  8  FC 00 7D C0 00 ED 00 00 
   154)        75.7  Rx         0088  8  FF FC 82 00 00 00 00 00 
   155)        75.9  Rx         0217  8  00 00 00 00 00 00 00 00 
   156)        78.2  Rx         0455  8  00 00 00 00 00 00 00 00 
   157)        78.6  Rx         0082  8  80 08 14 00 79 80 00 00 
   158)        78.9  Rx         0085  8  7C FB 00 00 EA B0 7D 16 
   159)        79.5  Rx         0186  8  14 04 01 F9 01 F7 00 00 
   160)        79.7  Rx         0187  8  D8 14 08 28 00 B0 03 00 
   161)        80.6  Rx         042C  8  80 02 00 00 2D 50 00 00 
   162)        81.1  Rx         03D6  8  AA FF FE FE 00 00 FF 7F 
   163)        81.3  Rx         03CA  8  FD 80 08 00 00 00 00 00 
   164)        81.6  Rx         0091  8  7E F7 7E E9 ED 30 F0 00 
   165)        81.8  Rx         0092  8  6F A8 6F A3 73 7F CB 30 
   166)        83.4  Rx         0078  8  01 0A 80 10 00 00 00 00 
   167)        83.7  Rx         0422  8  00 00 00 82 3C 02 FE 00 
   168)        83.9  Rx         0423  8  6D 20 00 00 00 00 00 00 
   169)        84.1  Rx         0430  8  3F 00 BC AB C8 5E 73 5C 
   170)        84.4  Rx         03AA  8  00 22 20 FF 0F F0 EE EE 
   171)        84.6  Rx         03AB  8  12 7F 07 F0 78 EE E0 00 
   172)        84.8  Rx         0047  8  20 00 00 00 00 00 00 00 
   173)        85.5  Rx         0165  8  10 C0 00 00 00 00 00 00 
   174)        85.7  Rx         0049  8  00 00 00 00 00 00 00 00 
   175)        86.0  Rx         0076  8  3E 65 C1 80 0F FF 00 00 
   176)        86.3  Rx         0077  8  00 00 08 00 7F F7 F5 FF 
   177)        86.5  Rx         007D  8  00 00 F1 E0 00 1F D8 00 
   178)        86.7  Rx         0088  8  FF FC 82 00 00 00 00 00 
   179)        87.0  Rx         0167  8  00 80 00 08 00 19 DC 00 
   180)        87.2  Rx         0213  8  FF FF 08 0C 80 01 FF 41 
   181)        87.4  Rx         0214  8  00 00 00 00 00 00 F1 E0 
   182)        87.7  Rx         0216  8  E3 CF E2 CE 82 00 00 00 
   183)        88.0  Rx         0217  8  00 00 00 00 00 00 00 00 
   184)        88.2  Rx         0415  8  00 00 CC F9 0F FE 0F FE 
   185)        88.4  Rx         0178  8  00 00 02 00 0E 42 CA 1D 
   186)        88.7  Rx         0085  8  7C FB 00 00 E9 C0 7D 16 
   187)        88.9  Rx         03CC  8  80 00 00 00 00 00 00 00 
   188)        89.2  Rx         04B0  8  D7 00 80 00 E0 00 08 F0 
   189)        89.9  Rx         0200  8  00 00 7F F3 7F F3 00 00 
   190)        90.2  Rx         0202  8  04 FC 00 00 60 00 00 00 
   191)        90.4  Rx         0204  8  C0 00 7D C0 00 FC 00 00 
   192)        91.8  Rx         0091  8  7E F7 7E E6 EB 35 F0 00 
   193)        92.1  Rx         0092  8  6F A7 6F A1 73 75 D3 35 
   194)        92.3  Rx         0230  8  00 00 04 FB 6D 36 F4 00 
   195)        92.8  Rx         0261  8  00 00 10 00 00 00 00 00 
   196)        93.3  Rx         0334  8  24 72 72 00 00 FF 40 00 
   197)        93.5  Rx         03A8  8  01 00 26 F5 00 00 00 00 
   198)        94.5  Rx         023A  8  81 C0 DF 0F 88 03 E4 00 
   199)        95.0  Rx         0167  8  00 80 00 08 00 19 DC 00 
   200)        95.5  Rx         0204  8  C4 00 7D C0 00 FB 00 00 
   201)        95.8  Rx         0088  8  FF FC 82 00 00 00 00 00 
   202)        96.0  Rx         0217  8  00 00 00 00 00 00 00 00 
   203)        96.2  Rx         042F  8  CD 04 00 01 90 00 00 00 
   204)        98.6  Rx         0082  8  80 08 14 00 79 80 00 00 
   205)        98.9  Rx         0085  8  7C FB 00 00 E8 D0 7D 16 
   206)        99.5  Rx         0186  8  14 04 01 F9 01 F7 00 00 
   207)        99.8  Rx         0187  8  D8 14 08 28 00 B0 03 00 
   208)       100.0  Rx         018A  8  00 20 10 01 31 00 00 00 
   209)       100.4  Rx         0242  8  00 CE 1E 44 C2 00 00 01 
   210)       101.9  Rx         0091  8  7E F7 7E E6 E6 3A F0 00 
   211)       102.1  Rx         0092  8  6F A7 6F A0 73 7F C5 3A 
   212)       103.2  Rx         0078  8  05 0B 80 10 00 00 00 00 
   213)       104.8  Rx         0047  8  20 00 00 00 00 00 00 00 
   214)       105.1  Rx         0165  8  10 C0 00 00 00 00 00 00 
   215)       105.3  Rx         0167  8  00 80 00 08 00 19 DC 00 
   216)       105.7  Rx         0049  8  00 00 00 00 00 00 00 00 
   217)       105.9  Rx         0076  8  3E 65 C1 80 0F FF 00 00 
   218)       106.1  Rx         0077  8  00 00 07 FE 7F F7 F5 FF 
   219)       106.4  Rx         007D  8  00 00 F0 F0 00 1F D8 00 
   220)       106.6  Rx         0088  8  FF FC 82 00 00 00 00 00 
   221)       106.9  Rx         0213  8  FF FF 08 0C 80 01 FF 41 
   222)       107.1  Rx         0214  8  00 00 00 00 00 00 F0 F0 
   223)       107.4  Rx         0216  8  E3 CF E2 CE 82 00 00 00 
   224)       107.6  Rx         0217  8  00 00 00 00 00 00 00 00 
   225)       107.8  Rx         0415  8  00 00 D0 F8 0F FE 0F FE 
   226)       108.1  Rx         04B0  8  D7 00 80 00 F0 00 08 EF 
   227)       108.4  Rx         0200  8  00 00 7F F3 7F F3 00 00 
   228)       108.6  Rx         0202  8  04 FA 10 00 60 00 00 00 
   229)       108.8  Rx         0085  8  7C FB 00 00 E7 E0 7D 16 
   230)       109.1  Rx         0204  8  C8 00 7D C0 00 FA 00 00 
   231)       110.1  Rx         0230  8  00 00 05 FA 6D 36 F4 00 
   232)       111.1  Rx         03D6  8  AA FF FE FE 00 00 FF 7F 
   233)       111.3  Rx         03CA  8  FD 80 08 00 00 00 00 00 
   234)       111.9  Rx         0091  8  7E F5 7E EA DF 3F F0 00 
   235)       112.1  Rx         0092  8  6F A7 6F 9F 73 7F C1 3F 
   236)       114.1  Rx         03A8  8  01 00 26 F5 00 00 00 00 
   237)       114.4  Rx         023A  8  81 C0 DF 0F 88 03 E4 00 
   238)       114.7  Rx         0167  8  00 80 00 08 00 19 DC 00 
   239)       115.0  Rx         0204  8  CC 00 7D C0 00 F9 00 00 
   240)       115.7  Rx         0088  8  FF FC 82 00 00 00 00 00 
   241)       115.9  Rx         0217  8  00 00 00 00 00 00 00 00 
   242)       118.3  Rx         0466  8  58 D4 1C 01 CC 40 48 00 
   243)       118.6  Rx         0082  8  80 08 14 00 79 80 00 00 
   244)       118.9  Rx         0085  8  7C FB 00 00 E6 F0 7D 16 
   245)       119.1  Rx         03CC  8  80 00 00 00 00 00 00 00 
   246)       119.4  Rx         0186  8  14 04 01 F9 01 F7 00 00 
   247)       119.7  Rx         0187  8  D8 14 08 28 00 B0 03 00 
   248)       121.9  Rx         0091  8  7E F3 7E EE D8 44 F0 00 
   249)       122.1  Rx         0092  8  6F A7 6F A0 73 6B CF 44 
   250)       123.2  Rx         0078  8  00 0A 00 10 00 00 00 00 
   251)       124.2  Rx         03A6  8  0E 40 0A 04 0A 00 00 00 
   252)       124.7  Rx         0047  8  20 00 00 00 00 00 00 00 
   253)       125.0  Rx         0165  8  10 C0 00 00 00 00 00 00 
   254)       125.3  Rx         0167  8  00 80 00 08 00 19 DC 00 
   255)       125.5  Rx         03A7  8  0E 40 0A 04 0A 00 00 00 
   256)       125.8  Rx         0049  8  00 00 00 00 00 00 00 00 
   257)       126.0  Rx         0076  8  3E 65 C1 80 0F FF 00 00 
   258)       126.2  Rx         0077  8  00 00 08 00 7F F7 F5 FF 
   259)       126.5  Rx         007D  8  00 00 FF 00 00 20 07 FF 
   260)       126.7  Rx         0088  8  FF FC 82 00 00 00 00 00 
   261)       127.0  Rx         0213  8  FF FF 08 0C 80 01 FF 41 
   262)       127.2  Rx         0214  8  00 00 00 00 00 00 FF 00 
   263)       127.5  Rx         0216  8  E3 CF E2 CE 82 00 00 00 
   264)       127.7  Rx         0217  8  00 00 00 00 00 00 00 00 
   265)       127.9  Rx         0415  8  00 00 D4 F7 0F FE 0F FE 
   266)       128.2  Rx         0416  8  54 00 FA 04 01 00 00 00 
   267)       128.5  Rx         04B0  8  D7 00 80 00 00 00 08 FE 
   268)       128.7  Rx         0085  8  7C FB 00 00 F5 00 7D 16 
   269)       128.9  Rx         0200  8  00 00 7F F3 7F F3 00 00 
   270)       129.2  Rx         0202  8  04 F8 20 00 60 00 00 00 
   271)       129.4  Rx         0204  8  D0 00 7D C0 00 F8 00 00 
   272)       130.8  Rx         0230  8  00 00 06 F9 6D 36 F4 00 
   273)       131.9  Rx         004A  8  02 00 00 18 00 00 00 00 
   274)       132.2  Rx         004B  8  00 18 00 C0 18 D8 D8 00 
   275)       132.5  Rx         004C  8  20 AA A2 40 00 00 00 00 
   276)       132.7  Rx         0091  8  7E F4 7E EF D1 49 F0 00 
   277)       132.9  Rx         0092  8  6F A5 6F A0 73 75 C2 49 
   278)       133.1  Rx         03A8  8  01 00 26 F5 00 00 00 00 
   279)       133.5  Rx         042C  8  80 02 00 00 2D 50 00 00 
   280)       133.8  Rx         042F  8  CD 04 00 01 90 00 00 00 
   281)       134.5  Rx         023A  8  81 C0 DF 0F 88 03 E4 00 
   282)       134.7  Rx         0167  8  00 80 00 08 00 19 DC 00 
   283)       135.0  Rx         0204  8  D4 00 7D C0 00 F7 00 00 
   284)       135.5  Rx         0261  8  00 00 10 00 00 00 00 00 
   285)       135.7  Rx         0088  8  FF FC 82 00 00 00 00 00 
   286)       136.0  Rx         0217  8  00 00 00 00 00 00 00 00 
   287)       138.6  Rx         0082  8  80 08 14 00 79 80 00 00 
   288)       138.9  Rx         0085  8  7C FB 00 00 F4 10 7D 16 
   289)       139.3  Rx         0186  8  14 04 01 F9 01 F7 00 00 
   290)       139.5  Rx         0187  8  D7 14 08 28 00 C0 03 00 
   291)       140.3  Rx         0242  8  00 CE 1E 44 C2 00 00 01 
   292)       141.1  Rx         03D6  8  AA FF FE FE 00 00 FF 7F 
   293)       141.3  Rx         03CA  8  FD 80 08 00 00 00 00 00 
   294)       142.0  Rx         0091  8  7E F4 7E EF CC 4E F0 00 
   295)       142.2  Rx         0092  8  6F A3 6F A0 73 7F B5 4E 
   296)       143.3  Rx         0078  8  01 0A 80 10 00 00 00 00 
   297)       144.8  Rx         0047  8  20 00 00 00 00 00 00 00 
   298)       145.0  Rx         0165  8  10 C0 00 00 00 00 00 00 
   299)       145.3  Rx         0167  8  00 80 00 08 00 19 DC 00 
   300)       145.6  Rx         0049  8  00 00 00 00 00 00 00 00 
   301)       145.9  Rx         0076  8  3E 65 C1 80 0F FF 00 00 
   302)       146.1  Rx         0077  8  00 00 08 00 7F F7 F1 FF 
   303)       146.4  Rx         007D  8  00 00 FE 10 00 1F D7 FF 
   304)       146.6  Rx         0088  8  FF FC 82 00 00 00 00 00 
   305)       146.8  Rx         0213  8  FF FF 08 0C 80 01 FF 41 
   306)       147.1  Rx         0214  8  00 00 00 00 00 00 FE 10 
   307)       147.4  Rx         0216  8  E3 CF E2 CE 82 00 00 00 
   308)       147.6  Rx         0217  8  00 00 00 00 00 00 00 00 
   309)       147.8  Rx         0415  8  00 00 D8 F6 0F FE 0F FE 
   310)       148.1  Rx         04B0  8  D7 00 80 00 10 00 08 FD 
   311)       148.3  Rx         0200  8  00 00 7F F3 7F F3 00 00 
   312)       148.5  Rx         0202  8  04 F6 30 00 60 00 00 00 
   313)       148.8  Rx         0085  8  7C FB 00 00 F3 20 7D 16 
   314)       149.1  Rx         0204  8  D8 00 7D C0 00 F6 00 00 
   315)       149.3  Rx         03CC  8  80 00 00 00 00 00 00 00 
   316)       150.2  Rx         0230  8  00 00 07 F8 6D 36 F4 00 
   317)       150.9  Rx         0334  8  24 72 72 00 00 FF 40 00 
   318)       152.0  Rx         0091  8  7E F8 7E EF C3 53 F0 00 
   319)       152.2  Rx         0092  8  6F A2 6F 9F 73 6B C6 53 
   320)       152.6  Rx         0083  8  00 00 00 00 00 00 00 00 
   321)       152.9  Rx         02A1  8  FF FF FF FF 00 00 00 00 
   322)       153.5  Rx         03A8  8  01 00 26 F5 00 00 00 00 
   323)       154.5  Rx         023A  8  81 C0 DF 0F 88 03 E4 00 
   324)       154.7  Rx         0167  8  00 80 00 08 00 19 DC 00 
   325)       155.2  Rx         0204  8  DC 00 7D C0 00 F5 00 00 
   326)       155.7  Rx         0088  8  FF FC 82 00 00 00 00 00 
   327)       155.9  Rx         0217  8  00 00 00 00 00 00 00 00 
   328)       156.1  Rx         042F  8  CD 04 00 01 90 00 00 00 
   329)       158.6  Rx         0082  8  80 08 14 00 79 80 00 00 
   330)       158.9  Rx         0085  8  7C FB 00 00 F2 30 7D 16 
   331)       159.1  Rx         0186  8  14 04 01 F9 01 F7 00 00 
   332)       159.3  Rx         0187  8  D7 14 08 28 00 C0 03 00 
   333)       162.0  Rx         0091  8  7E FD 7E EE BA 58 F0 00 
   334)       162.2  Rx         0092  8  6F A3 6F 9F 73 7F AC 58 
   335)       163.2  Rx         0078  8  01 0A 80 10 00 00 00 00 
   336)       164.8  Rx         0047  8  20 00 00 00 00 00 00 00 
   337)       165.0  Rx         0165  8  10 C0 00 00 00 00 00 00 
   338)       165.3  Rx         0167  8  00 80 00 08 00 19 DC 00 
   339)       165.6  Rx         0049  8  00 00 00 00 00 00 00 00 
   340)       165.9  Rx         0076  8  3E 65 C1 80 0F FF 00 00 
   341)       166.1  Rx         0077  8  00 00 08 00 7F F7 ED FF 
   342)       166.4  Rx         007D  8  00 00 FD 20 00 1F A8 00 
   343)       166.6  Rx         0088  8  FF FC 82 00 00 00 00 00 
   344)       166.8  Rx         0213  8  FF FF 08 0C 80 01 FF 41 
   345)       167.1  Rx         0214  8  00 00 00 00 00 00 FD 20 
   346)       167.4  Rx         0216  8  E3 CF E2 CE 82 00 00 00 
   347)       167.6  Rx         0217  8  00 00 00 00 00 00 00 00 
   348)       167.8  Rx         0415  8  00 00 DC F5 0F FE 0F FE 
   349)       168.1  Rx         04B0  8  D7 00 80 00 20 00 08 FC 
   350)       168.3  Rx         0200  8  00 00 7F F3 7F F3 00 00 
   351)       168.6  Rx         0202  8  04 F4 40 00 60 00 00 00 
   352)       168.8  Rx         0085  8  7C FB 00 00 F1 40 7D 16 
   353)       169.0  Rx         0204  8  E0 00 7D C0 00 F4 00 00 
   354)       170.1  Rx         0230  8  00 00 08 F7 6D 36 F4 00 
   355)       171.1  Rx         03D6  8  AA FF FE FE 00 00 FF 7F 
   356)       171.4  Rx         03CA  8  FD 80 08 00 00 00 00 00 
   357)       171.8  Rx         0091  8  7E FD 7E ED B6 5D F0 00 
   358)       172.0  Rx         0092  8  6F A5 6F A0 73 75 AE 5D 
   359)       173.4  Rx         03A8  8  01 00 26 F5 00 00 00 00 
   360)       174.4  Rx         023A  8  81 C0 DF 0F 88 03 E4 00 
   361)       174.7  Rx         0167  8  00 80 00 08 00 19 DC 00 
   362)       175.0  Rx         0204  8  E4 00 7D C0 00 F3 00 00 
   363)       175.6  Rx         0088  8  FF FC 82 00 00 00 00 00 
   364)       175.9  Rx         0217  8  00 00 00 00 00 00 00 00 
   365)       178.2  Rx         0455  8  00 00 00 00 00 00 00 00 
   366)       178.6  Rx         0186  8  14 04 01 F9 01 F7 00 00 
   367)       178.8  Rx         0082  8  80 08 14 00 79 80 00 00 
   368)       179.1  Rx         0085  8  7C FB 00 00 F0 50 7D 16 
   369)       179.3  Rx         0187  8  D7 14 08 28 00 C0 03 00 
   370)       179.6  Rx         03CC  8  80 00 00 00 00 00 00 00 
   371)       180.3  Rx         0242  8  00 CE 1E 44 C2 00 00 01 
   372)       180.6  Rx         040A  8  C1 02 34 39 38 30 30 FF 
   373)       180.8  Rx         042C  8  80 02 00 00 2D 50 00 00 
   374)       181.8  Rx         0091  8  7E FB 7E EE B2 62 F0 00 
   375)       182.0  Rx         0092  8  6F A5 6F A0 73 75 A9 62 
   376)       183.5  Rx         0078  8  00 0A 00 10 00 00 00 00 
   377)       183.8  Rx         0422  8  00 00 00 82 3C 02 FE 00 
   378)       184.0  Rx         0423  8  6D 20 00 00 00 00 00 00 
   379)       184.3  Rx         0430  8  3F 00 BC AB C8 5E 73 5C 
   380)       184.9  Rx         0047  8  20 00 00 00 00 00 00 00 
   381)       185.5  Rx         0165  8  10 C0 00 00 00 00 00 00 
   382)       185.8  Rx         0049  8  00 00 00 00 00 00 00 00 
   383)       186.0  Rx         0076  8  3E 65 C1 80 0F FF 00 00 
   384)       186.3  Rx         0077  8  00 00 08 00 7F F7 F1 FF 
   385)       186.6  Rx         007D  8  00 00 FC 30 00 1F D8 01 
   386)       186.8  Rx         0088  8  FF FC 82 00 00 00 00 00 
   387)       187.0  Rx         0167  8  00 80 00 08 00 19 DC 00 
   388)       187.3  Rx         0213  8  FF FF 08 0C 80 01 FF 41 
   389)       187.5  Rx         0214  8  00 00 00 00 00 00 FC 30 
   390)       187.8  Rx         0216  8  E3 CF E2 CE 82 00 00 00 
   391)       188.0  Rx         0217  8  00 00 00 00 00 00 00 00 
   392)       188.3  Rx         0415  8  00 00 E0 F4 0F FE 0F FE 
   393)       188.5  Rx         04B0  8  D7 00 80 00 30 00 08 FB 
   394)       188.7  Rx         0085  8  7C FB 00 00 EF 60 7D 16 
   395)       189.0  Rx         0178  8  00 00 02 00 0E 42 CA 1D 
   396)       190.7  Rx         0200  8  00 00 7F F3 7F F3 00 00 
   397)       190.9  Rx         0202  8  04 F2 50 00 60 00 00 00 
   398)       191.2  Rx         0204  8  E8 00 7D C0 00 F2 00 00 
   399)       192.2  Rx         0091  8  7E F9 7E EF AE 67 F0 00 
   400)       192.4  Rx         0092  8  6F A5 6F A0 73 6B AE 67 
   401)       192.8  Rx         0230  8  00 00 09 F6 6D 36 F4 00 
   402)       193.6  Rx         0261  8  00 00 10 00 00 00 00 00 
   403)       194.3  Rx         03A8  8  01 00 26 F5 00 00 00 00 
   404)       194.6  Rx         023A  8  81 C0 DF 0F 88 03 E8 00 
   405)       195.0  Rx         0167  8  00 80 00 08 00 19 DC 00 
   406)       195.3  Rx         0204  8  EC 00 7D C0 00 F1 00 00 
   407)       195.5  Rx         042F  8  CD 04 00 01 90 00 00 00 
   408)       195.8  Rx         0088  8  FF FC 82 00 00 00 00 00 
   409)       196.0  Rx         0217  8  00 00 00 00 00 00 00 00 
   410)       198.6  Rx         0082  8  80 08 14 00 79 80 00 00 
   411)       198.8  Rx         0085  8  7C FB 00 00 EE 70 7D 16 
   412)       199.1  Rx         0186  8  14 04 01 F9 01 F7 00 00 
   413)       199.4  Rx         0187  8  D7 14 08 28 00 C0 03 00 
   414)       199.6  Rx         018A  8  00 20 10 01 31 00 00 00 
   415)       201.1  Rx         03D6  8  AA FF FE FE 00 00 FF 7F 
   416)       201.4  Rx         03CA  8  FD 80 08 00 00 00 00 00 
   417)       202.1  Rx         0091  8  7E FB 7E EF A7 6C F0 00 
   418)       202.3  Rx         0092  8  6F A3 6F A0 73 92 84 6C 
   419)       203.2  Rx         0078  8  05 0B 80 10 00 00 00 00 
   420)       204.7  Rx         0047  8  20 00 00 00 00 00 00 00 
   421)       205.0  Rx         0165  8  10 C0 00 00 00 00 00 00 
   422)       205.2  Rx         0167  8  00 80 00 08 00 19 DC 00 
   423)       205.7  Rx         0049  8  00 00 00 00 00 00 00 00 
   424)       205.9  Rx         0076  8  3E 65 C1 80 0F FF 00 00 
   425)       206.1  Rx         0077  8  00 00 08 00 7F F7 F1 FF 
   426)       206.4  Rx         007D  8  00 00 FB 40 00 1F A8 00 
   427)       206.7  Rx         0088  8  FF FC 82 00 00 00 00 00 
   428)       206.9  Rx         0213  8  FF FF 08 0C 80 01 FF 41 
   429)       207.1  Rx         0214  8  00 00 00 00 00 00 FB 40 
   430)       207.4  Rx         0216  8  E3 CF E2 CE 82 00 00 00 
   431)       207.6  Rx         0217  8  00 00 00 00 00 00 00 00 
   432)       207.9  Rx         0415  8  00 00 E4 F3 0F FE 0F FE 
   433)       208.1  Rx         04B0  8  D7 00 80 00 40 00 08 FA 
   434)       208.4  Rx         0200  8  00 00 7F F3 7F F3 00 00 
   435)       208.6  Rx         0202  8  04 F0 60 00 60 00 00 00 
   436)       208.8  Rx         0085  8  7C FB 00 00 ED 80 7D 16 
   437)       209.1  Rx         0204  8  F0 00 7D C0 00 F0 00 00 
   438)       209.3  Rx         03CC  8  80 00 00 00 00 00 00 00 
   439)       210.1  Rx         0230  8  00 00 0A F5 6D 36 F4 00 
   440)       211.1  Rx         0334  8  24 72 72 00 00 FF 40 00 
   441)       212.1  Rx         0091  8  7E FC 7E EE A2 71 F0 00 
   442)       212.3  Rx         0092  8  6F A1 6F A0 73 7F 94 71 
   443)       214.2  Rx         03A8  8  01 00 26 F5 00 00 00 00 
   444)       214.5  Rx         023A  8  81 C0 DF 0F 88 03 E4 00 
   445)       214.8  Rx         0167  8  00 80 00 08 00 19 DC 00 
   446)       215.2  Rx         0204  8  F4 00 7D C0 00 EF 00 00 
   447)       215.7  Rx         0088  8  FF FC 82 00 00 00 00 00 
   448)       215.9  Rx         0217  8  00 00 00 00 00 00 00 00 
   449)       216.1  Rx         042F  8  CD 04 00 01 90 00 00 00 
   450)       218.5  Rx         0186  8  14 04 01 F9 01 F7 00 00 
   451)       218.7  Rx         0082  8  80 08 14 00 79 80 00 00 
   452)       219.0  Rx         0085  8  7C FB 00 00 EC 90 7D 16 
   453)       219.2  Rx         0187  8  D7 14 08 28 00 C0 03 00 
   454)       220.1  Rx         0242  8  00 CE 1E 44 C2 00 00 01 
   455)       222.2  Rx         0091  8  7E F9 7E EB A3 76 F0 00 
   456)       222.4  Rx         0092  8  6F A0 6F 9F 73 7F 91 76 
   457)       223.3  Rx         0078  8  01 0A 80 10 00 00 00 00 
   458)       224.8  Rx         0047  8  20 00 00 00 00 00 00 00 
   459)       225.0  Rx         0165  8  10 C0 00 00 00 00 00 00 
   460)       225.3  Rx         0167  8  00 80 00 08 00 19 DC 00 
   461)       225.6  Rx         0049  8  00 00 00 00 00 00 00 00 
   462)       225.9  Rx         0076  8  3E 65 C1 80 0F FF 00 00 
   463)       226.2  Rx         0077  8  00 00 08 00 7F F7 ED FF 
   464)       226.4  Rx         007D  8  00 00 FA 50 00 20 08 01 
   465)       226.6  Rx         0088  8  FF FC 82 00 00 00 00 00 
   466)       226.9  Rx         0213  8  FF FF 08 0C 80 01 FF 41 
   467)       227.1  Rx         0214  8  00 00 00 00 00 00 FA 50 
   468)       227.4  Rx         0216  8  E3 CF E2 CE 82 00 00 00 
   469)       227.6  Rx         0217  8  00 00 00 00 00 00 00 00 
   470)       227.9  Rx         0415  8  00 00 E8 F2 0F FE 0F FE 
   471)       228.1  Rx         0416  8  55 00 F9 04 01 00 00 00 
   472)       228.3  Rx         0200  8  00 00 7F F3 7F F3 00 00 
   473)       228.6  Rx         0202  8  04 EE 70 00 60 00 00 00 
   474)       228.8  Rx         0085  8  7C FB 00 00 EB A0 7D 16 
   475)       229.1  Rx         0204  8  F8 00 7D C0 00 EE 00 00 
   476)       229.3  Rx         04B0  8  D7 00 80 00 50 00 08 F9 
   477)       230.2  Rx         0230  8  00 00 0B F4 6D 36 F4 00 
   478)       231.1  Rx         03D6  8  AA FF FE FE 00 00 FF 7F 
   479)       231.4  Rx         03CA  8  FD 80 08 00 00 00 00 00 
   480)       231.6  Rx         042C  8  80 02 00 00 2D 50 00 00 
   481)       231.9  Rx         004A  8  02 00 00 18 00 00 00 00 
   482)       232.2  Rx         004B  8  00 18 00 C0 18 D8 D8 00 
   483)       232.4  Rx         004C  8  20 AA A2 40 00 00 00 00 
   484)       232.6  Rx         0091  8  7E F6 7E E9 A3 7B F0 00 
   485)       232.9  Rx         0092  8  6F A1 6F 9E 73 6B A0 7B 
   486)       234.0  Rx         03A8  8  01 00 26 F5 00 00 00 00 
   487)       234.5  Rx         023A  8  81 C0 DF 0F 88 03 E4 00 
   488)       234.7  Rx         0167  8  00 80 00 08 00 19 DC 00 
   489)       235.0  Rx         0204  8  FC 00 7D C0 00 ED 00 00 
   490)       235.5  Rx         0261  8  00 00 10 00 00 00 00 00 
   491)       235.7  Rx         0088  8  FF FC 82 00 00 00 00 00 
   492)       236.0  Rx         0217  8  00 00 00 00 00 00 00 00 
   493)       238.4  Rx         0186  8  14 04 01 F9 01 F7 00 00 
   494)       238.6  Rx         0082  8  80 08 14 00 79 80 00 00 
   495)       238.9  Rx         0085  8  7C FB 00 00 EA B0 7D 16 
   496)       239.1  Rx         0187  8  D6 14 08 28 00 D0 03 00 
   497)       239.3  Rx         03CC  8  80 00 00 00 00 00 00 00 
   498)       242.2  Rx         0091  8  7E F4 7E E7 A2 80 F0 00 
   499)       242.5  Rx         0092  8  6F A3 6F 9E 73 75 8F 80 
   500)       243.3  Rx         0078  8  00 0A 00 10 00 00 00 00 
   501)       244.8  Rx         0047  8  20 00 00 00 00 00 00 00 
   502)       245.0  Rx         0165  8  10 C0 00 00 00 00 00 00 
   503)       245.3  Rx         0167  8  00 80 00 08 00 19 DC 00 
   504)       245.7  Rx         0049  8  00 00 00 00 00 00 00 00 
   505)       245.9  Rx         0076  8  3E 65 C1 80 0F FF 00 00 
   506)       246.1  Rx         0077  8  00 00 07 FF 7F F7 ED FF 
   507)       246.4  Rx         007D  8  00 00 F9 60 00 1F A8 00 
   508)       246.6  Rx         0088  8  FF FC 82 00 00 00 00 00 
   509)       246.8  Rx         0213  8  FF FF 08 0C 80 01 FF 41 
   510)       247.1  Rx         0214  8  00 00 00 00 00 00 F9 60 
   511)       247.4  Rx         0216  8  E3 CF E2 CE 82 00 00 00 
   512)       247.6  Rx         0217  8  00 00 00 00 00 00 00 00 
   513)       247.8  Rx         0415  8  00 00 EC F1 0F FE 0F FE 
   514)       248.1  Rx         04B0  8  D7 00 80 00 60 00 08 F8 
   515)       248.6  Rx         0085  8  7C FB 00 00 E9 C0 7D 16 
   516)       248.9  Rx         0200  8  00 00 7F F3 7F F3 00 00 
   517)       249.2  Rx         0202  8  04 FC 00 00 60 00 00 00 
   518)       249.5  Rx         0204  8  C0 00 7D C0 00 FC 00 00 
   519)       250.9  Rx         0230  8  00 00 0C F3 6D 36 F4 00 
   520)       251.8  Rx         042F  8  CD 04 00 01 90 00 00 00 
   521)       252.2  Rx         0091  8  7E F4 7E E7 9D 85 F0 00 
   522)       252.4  Rx         0092  8  6F A5 6F A0 73 75 86 85 
   523)       252.7  Rx         0083  8  00 00 00 00 00 00 00 00 
   524)       253.0  Rx         02A1  8  FF FF FF FF 00 00 00 00 
   525)       253.2  Rx         03A8  8  01 00 26 F5 00 00 00 00 
   526)       254.5  Rx         023A  8  81 C0 DF 0F 88 03 E4 00 
   527)       254.7  Rx         0167  8  00 80 00 08 00 19 DC 00 
   528)       255.0  Rx         0204  8  C4 00 7D C0 00 FB 00 00 
   529)       255.7  Rx         0088  8  FF FC 82 00 00 00 00 00 
   530)       255.9  Rx         0217  8  00 00 00 00 00 00 00 00 
   531)       257.9  Rx         0186  8  14 04 01 F9 01 F7 00 00 
   532)       258.1  Rx         0187  8  D6 14 08 28 00 D0 03 00 
   533)       258.6  Rx         0082  8  80 08 14 00 79 80 00 00 
   534)       258.8  Rx         0085  8  7C FB 00 00 E8 D0 7D 16 
   535)       260.3  Rx         0242  8  00 CE 1E 44 C2 00 00 01 
   536)       261.1  Rx         03D6  8  AA FF FE FE 00 00 FF 7F 
   537)       261.4  Rx         03CA  8  FD 80 08 00 00 00 00 00 
   538)       262.3  Rx         0091  8  7E F4 7E E9 96 8A F0 00 
   539)       262.5  Rx         0092  8  6F A5 6F A0 73 89 6D 8A 
   540)       263.4  Rx         0078  8  01 0A 80 10 00 00 00 00 
   541)       264.8  Rx         0047  8  20 00 00 00 00 00 00 00 
   542)       265.1  Rx         0165  8  10 C0 00 00 00 00 00 00 
   543)       265.3  Rx         0167  8  00 80 00 08 00 19 DC 00 
   544)       265.6  Rx         0049  8  00 00 00 00 00 00 00 00 
   545)       265.9  Rx         0076  8  3E 65 C1 80 0F FF 00 00 
   546)       266.1  Rx         0077  8  00 00 07 FF 7F F7 F1 FF 
   547)       266.4  Rx         007D  8  00 00 F8 70 00 1F D7 FF 
   548)       266.6  Rx         0088  8  FF FC 82 00 00 00 00 00 
   549)       266.9  Rx         0213  8  FF FF 08 0C 80 01 FF 41 
   550)       267.1  Rx         0214  8  00 00 00 00 00 00 F8 70 
   551)       267.3  Rx         0216  8  E3 CF E2 CE 82 00 00 00 
   552)       267.6  Rx         0217  8  00 00 00 00 00 00 00 00 
   553)       267.8  Rx         0415  8  00 00 F0 F0 0F FE 0F FE 
   554)       268.1  Rx         04B0  8  D7 00 80 00 70 00 08 F7 
   555)       268.3  Rx         0200  8  00 00 7F F3 7F F3 00 00 
   556)       268.6  Rx         0202  8  04 FA 10 00 60 00 00 00 
   557)       268.8  Rx         0085  8  7C FB 00 00 E7 E0 7D 16 
   558)       269.1  Rx         0204  8  C8 00 7D C0 00 FA 00 00 
   559)       269.3  Rx         03CC  8  80 00 00 00 00 00 00 00 
   560)       270.2  Rx         0230  8  00 00 0D F2 6D 36 F4 00 
   561)       270.9  Rx         0334  8  24 72 72 00 00 FF 40 00 
   562)       272.3  Rx         0091  8  7E F7 7E EB 8C 8F F0 00 
   563)       272.5  Rx         0092  8  6F A3 6F A2 73 7F 72 8F 
   564)       273.1  Rx         03A8  8  01 00 26 F5 00 00 00 00 
   565)       274.5  Rx         023A  8  81 C0 DF 0F 88 03 E4 00 
   566)       274.7  Rx         0167  8  00 80 00 08 00 19 DC 00 
   567)       275.2  Rx         0204  8  CC 00 7D C0 00 F9 00 00 
   568)       275.6  Rx         0088  8  FF FC 82 00 00 00 00 00 
   569)       275.9  Rx         0217  8  00 00 00 00 00 00 00 00 
   570)       276.2  Rx         042F  8  CD 04 00 01 90 00 00 00 
   571)       277.7  Rx         0186  8  14 04 01 F9 01 F7 00 00 
   572)       278.0  Rx         0187  8  D6 14 08 28 00 D0 03 00 
   573)       278.6  Rx         0455  8  00 00 00 00 00 00 00 00 
   574)       278.8  Rx         0082  8  80 08 14 00 79 80 00 00 
   575)       279.1  Rx         0085  8  7C FB 00 00 E6 F0 7D 16 
   576)       280.5  Rx         042C  8  80 02 00 00 2D 50 00 00 
   577)       282.3  Rx         0091  8  7E FB 7E EB 83 94 F0 00 
   578)       282.6  Rx         0092  8  6F A2 6F A3 73 75 77 94 
   579)       283.4  Rx         0078  8  01 0A 80 10 00 00 00 00 
   580)       283.7  Rx         0422  8  00 00 00 82 3C 02 FE 00 
   581)       283.9  Rx         0423  8  6D 20 00 00 00 00 00 00 
   582)       284.1  Rx         0430  8  3F 00 BC AB C8 5E 73 5C 
   583)       284.4  Rx         03AA  8  00 22 20 FF 0F F0 EE EE 
   584)       284.6  Rx         03AB  8  12 7F 07 F0 78 EE E0 00 
   585)       284.9  Rx         0047  8  20 00 00 00 00 00 00 00 
   586)       285.6  Rx         0165  8  10 C0 00 00 00 00 00 00 
   587)       285.8  Rx         0049  8  00 00 00 00 00 00 00 00 
   588)       286.1  Rx         0076  8  3E 65 C1 80 0F FF 00 00 
   589)       286.3  Rx         0077  8  00 00 08 00 7F F7 F1 FF 
   590)       286.6  Rx         007D  8  00 00 F7 80 00 20 08 00 
   591)       286.8  Rx         0088  8  FF FC 82 00 00 00 00 00 
   592)       287.0  Rx         0167  8  00 80 00 08 00 19 DC 00 
   593)       287.3  Rx         0213  8  FF FF 08 0C 80 01 FF 41 
   594)       287.6  Rx         0214  8  00 00 00 00 00 00 F7 80 
   595)       287.8  Rx         0216  8  E3 CF E2 CE 82 00 00 00 
   596)       288.0  Rx         0217  8  00 00 00 00 00 00 00 00 
   597)       288.3  Rx         0415  8  00 00 F4 EF 0F FE 0F FE 
   598)       288.5  Rx         0178  8  00 00 02 00 0E 43 CA 1D 
   599)       288.7  Rx         0085  8  7C FB 00 00 F5 00 7D 16 
   600)       289.0  Rx         04B0  8  D7 00 80 00 80 00 08 F6 
   601)       290.0  Rx         0200  8  00 00 7F F3 7F F3 00 00 
   602)       290.2  Rx         0202  8  04 F8 20 00 60 00 00 00 
   603)       290.5  Rx         0204  8  D0 00 7D C0 00 F8 00 00 
   604)       291.1  Rx         03D6  8  AA FF FE FE 00 00 FF 7F 
   605)       291.3  Rx         03CA  8  FD 80 08 00 00 00 00 00 
   606)       292.2  Rx         0230  8  00 00 0E F1 6D 36 F4 00 
   607)       292.4  Rx         0091  8  7E F9 7E EA 81 99 F0 00 
   608)       292.6  Rx         0092  8  6F A1 6F A4 73 89 5E 99 
   609)       292.9  Rx         0261  8  00 00 10 00 00 00 00 00 
   610)       293.9  Rx         03A8  8  01 00 26 F5 00 00 00 00 
   611)       294.5  Rx         023A  8  81 C0 DF 0F 88 03 E4 00 
   612)       295.1  Rx         0167  8  00 80 00 08 00 19 DC 00 
   613)       295.3  Rx         0204  8  D4 00 7D C0 00 F7 00 00 
   614)       295.7  Rx         0088  8  FF FC 82 00 00 00 00 00 
   615)       296.0  Rx         0217  8  00 00 00 00 00 00 00 00 
   616)       297.6  Rx         0186  8  14 04 01 F9 01 F7 00 00 
   617)       297.8  Rx         0187  8  D6 14 08 28 00 D0 03 00 
   618)       298.0  Rx         018A  8  00 20 10 01 31 00 00 00 
   619)       298.3  Rx         03E5  8  00 00 00 00 80 00 00 00 
   620)       298.6  Rx         0082  8  80 08 14 00 79 80 00 00 
   621)       298.9  Rx         0085  8  7C FB 00 00 F4 10 7D 16 
   622)       299.1  Rx         03CC  8  80 00 00 00 00 00 00 00 
   623)       300.1  Rx         0242  8  00 CE 1E 43 C2 00 00 01 
   624)       302.4  Rx         0091  8  7E F4 7E E9 82 9E F0 00 
   625)       302.6  Rx         0092  8  6F A1 6F A2 73 7F 65 9E 
   626)       303.4  Rx         0078  8  04 0B 00 10 00 00 00 00 
   627)       304.8  Rx         0047  8  20 00 00 00 00 00 00 00 
   628)       305.0  Rx         0165  8  10 C0 00 00 00 00 00 00 
   629)       305.3  Rx         0167  8  00 80 00 08 00 19 DC 00 
   630)       305.6  Rx         0049  8  00 00 00 00 00 00 00 00 
   631)       305.9  Rx         0076  8  3E 65 C1 80 0F FF 00 00 
   632)       306.2  Rx         0077  8  00 00 08 00 7F F7 EE 00 
   633)       306.4  Rx         007D  8  00 00 F6 90 00 20 38 00 
   634)       306.6  Rx         0088  8  FF FC 82 00 00 00 00 00 
   635)       306.9  Rx         0213  8  FF FF 08 0C 80 01 FF 41 
   636)       307.1  Rx         0214  8  00 00 00 00 00 00 F6 90 
   637)       307.3  Rx         0216  8  E3 CF E2 CE 82 00 00 00 
   638)       307.6  Rx         0217  8  00 00 00 00 00 00 00 00 
   639)       307.9  Rx         0415  8  00 00 F8 EE 0F FE 0F FE 
   640)       308.1  Rx         04B0  8  D7 00 80 00 90 00 08 F5 
   641)       308.6  Rx         0085  8  7C FB 00 00 F3 20 7D 16 
   642)       309.0  Rx         0200  8  00 00 7F F3 7F F3 00 00 
   643)       309.2  Rx         0202  8  04 F6 30 00 60 00 00 00 
   644)       309.4  Rx         0204  8  D8 00 7D C0 00 F6 00 00 
   645)       310.9  Rx         0230  8  00 00 0F F0 6D 36 F4 00 
   646)       312.1  Rx         042F  8  CD 04 00 01 90 00 00 00 
   647)       312.5  Rx         0091  8  7E F4 7E E8 7E A3 F0 00 
   648)       312.7  Rx         0092  8  6F A2 6F A2 73 75 69 A3 
   649)       314.0  Rx         03A8  8  01 00 26 F5 00 00 00 00 
   650)       314.5  Rx         023A  8  81 C0 DF 0F 88 03 E4 00 
   651)       314.7  Rx         0167  8  00 80 00 08 00 19 DC 00 
   652)       315.0  Rx         0204  8  DC 00 7D C0 00 F5 00 00 
   653)       315.7  Rx         0088  8  FF FC 82 00 00 00 00 00 
   654)       315.9  Rx         0217  8  00 00 00 00 00 00 00 00 
   655)       317.7  Rx         0186  8  14 04 01 F9 01 F7 00 00 
   656)       317.9  Rx         0187  8  D6 14 08 28 00 D0 03 00 
   657)       318.6  Rx         0082  8  7F 08 14 00 79 80 00 00 
   658)       318.9  Rx         0085  8  7C FB 00 00 F2 30 7D 16 
   659)       321.1  Rx         03D6  8  AA FF FE FE 00 00 FF 7F 
   660)       321.3  Rx         03CA  8  FD 80 08 00 00 00 00 00 
   661)       322.1  Rx         0091  8  7E F7 7E E6 78 A8 F0 00 
   662)       322.3  Rx         0092  8  6F A2 6F A1 73 7F 5B A8 
   663)       323.2  Rx         0078  8  01 0A 80 10 00 00 00 00 
   664)       323.9  Rx         03A7  8  0E 40 0A 04 0A 00 00 00 
   665)       324.8  Rx         0047  8  20 00 00 00 00 00 00 00 
   666)       325.0  Rx         0165  8  10 C0 00 00 00 00 00 00 
   667)       325.3  Rx         0167  8  00 80 00 08 00 19 DC 00 
   668)       325.6  Rx         0049  8  00 00 00 00 00 00 00 00 
   669)       325.9  Rx         0076  8  3E 65 C1 80 0F FF 00 00 
   670)       326.1  Rx         0077  8  00 00 07 FF 7F F7 ED FF 
   671)       326.3  Rx         007D  8  00 00 F5 A0 00 1F D7 FF 
   672)       326.6  Rx         0088  8  FF FC 82 00 00 00 00 00 
   673)       326.8  Rx         0213  8  FF FF 08 0C 80 01 FF 41 
   674)       327.1  Rx         0214  8  00 00 00 00 00 00 F5 A0 
   675)       327.3  Rx         0216  8  E3 CF E2 CE 82 00 00 00 
   676)       327.6  Rx         0217  8  00 00 00 00 00 00 00 00 
   677)       327.8  Rx         03A6  8  0E 40 0A 04 0A 00 00 00 
   678)       328.0  Rx         0415  8  00 00 FC ED 0F FE 0F FE 
   679)       328.3  Rx         0200  8  00 00 7F F3 7F F3 00 00 
   680)       328.6  Rx         0202  8  04 F4 40 00 60 00 00 00 
   681)       328.8  Rx         0085  8  7C FB 00 00 F1 40 7D 16 
   682)       329.0  Rx         0204  8  E0 00 7D C0 00 F4 00 00 
   683)       329.3  Rx         03CC  8  80 00 00 00 00 00 00 00 
   684)       329.5  Rx         0416  8  56 00 F8 04 01 00 00 00 
   685)       329.7  Rx         04B0  8  D7 00 80 00 A0 00 08 F4 
   686)       330.1  Rx         0230  8  00 00 00 FF 6D 36 F4 00 
   687)       331.1  Rx         0334  8  24 72 72 00 00 FF 40 00 
   688)       331.8  Rx         042C  8  80 02 00 00 2D 50 00 00 
   689)       332.2  Rx         004A  8  02 00 00 18 00 00 00 00 
   690)       332.4  Rx         004B  8  00 18 00 C0 18 D8 D8 00 
   691)       332.6  Rx         004C  8  20 AA A2 40 00 00 00 00 
   692)       332.9  Rx         0091  8  7E FB 7E E6 6F AD F0 00 
   693)       333.1  Rx         0092  8  6F A3 6F A0 73 6B 6A AD 
   694)       334.3  Rx         03A8  8  01 00 26 F5 00 00 00 00 
   695)       334.5  Rx         023A  8  81 C0 DF 0F 88 03 E4 00 
   696)       334.7  Rx         0167  8  00 80 00 08 00 19 DC 00 
   697)       335.3  Rx         0204  8  E4 00 7D C0 00 F3 00 00 
   698)       335.6  Rx         0088  8  FF FC 82 00 00 00 00 00 
   699)       335.9  Rx         0217  8  00 00 00 00 00 00 00 00 
   700)       336.1  Rx         0261  8  00 00 10 00 00 00 00 00 
   701)       336.4  Rx         042F  8  CD 04 00 01 90 00 00 00 
   702)       337.6  Rx         0186  8  14 04 01 F9 01 F7 00 00 
   703)       337.9  Rx         0187  8  D5 14 08 28 00 E0 03 00 
   704)       338.6  Rx         0082  8  7F 08 14 00 79 80 00 00 
   705)       338.8  Rx         0085  8  7C FB 00 00 F0 50 7D 16 
   706)       340.2  Rx         0242  8  00 CE 1E 43 C2 00 00 01 
   707)       342.2  Rx         0091  8  7E FE 7E E9 64 B2 F0 00 
   708)       342.4  Rx         0092  8  6F A3 6F A0 73 6B 65 B2 
   709)       343.3  Rx         0078  8  01 0A 80 10 00 00 00 00 
   710)       344.8  Rx         0047  8  20 00 00 00 00 00 00 00 
   711)       345.1  Rx         0165  8  10 C0 00 00 00 00 00 00 
   712)       345.3  Rx         0167  8  00 80 00 08 00 19 DC 00 
   713)       345.7  Rx         0049  8  00 00 00 00 00 00 00 00 
   714)       345.9  Rx         0076  8  3E 65 C1 80 0F FF 00 00 
   715)       346.1  Rx         0077  8  00 00 07 FE 7F F7 F1 FF 
   716)       346.4  Rx         007D  8  00 00 F4 B0 00 1F A8 00 
   717)       346.6  Rx         0088  8  FF FC 82 00 00 00 00 00 
   718)       346.9  Rx         0213  8  FF FF 08 0C 80 01 FF 41 
   719)       347.1  Rx         0214  8  00 00 00 00 00 00 F4 B0 
   720)       347.4  Rx         0216  8  E3 CF E2 CE 82 00 00 00 
   721)       347.6  Rx         0217  8  00 00 00 00 00 00 00 00 
   722)       347.8  Rx         0415  8  00 00 C0 FC 0F FE 0F FE 
   723)       348.1  Rx         04B0  8  D7 00 80 00 B0 00 08 F3 
   724)       348.4  Rx         0200  8  00 00 7F F3 7F F3 00 00 
   725)       348.6  Rx         0202  8  04 F2 50 00 60 00 00 00 
   726)       348.8  Rx         0085  8  7C FB 00 00 EF 60 7D 16 
   727)       349.1  Rx         0204  8  E8 00 7D C0 00 F2 00 00 
   728)       350.4  Rx         0230  8  00 00 01 FE 6D 36 F4 00 
   729)       351.1  Rx         03D6  8  AA FF FE FE 00 00 FF 7F 
   730)       351.3  Rx         03CA  8  FD 80 08 00 00 00 00 00 
   731)       352.5  Rx         0091  8  7E FD 7E EB 5E B7 F0 00 
   732)       352.7  Rx         0081  8  00 00 00 00 00 00 00 00 
   733)       353.0  Rx         0092  8  6F A4 6F A0 73 7F 4B B7 
   734)       353.2  Rx         0083  8  00 00 00 00 00 00 00 00 
   735)       353.5  Rx         03A8  8  01 00 26 F5 00 00 00 00 
   736)       353.7  Rx         02A1  8  FF FF FF FF 00 00 00 00 
   737)       354.0  Rx         033B  8  00 00 00 00 00 00 00 00 
   738)       354.3  Rx         03E6  8  00 01 04 08 80 00 00 00 
   739)       354.5  Rx         023A  8  81 C0 DF 0F 88 03 E4 00 
   740)       354.8  Rx         0167  8  00 80 00 08 00 19 DC 00 
   741)       355.0  Rx         0204  8  EC 00 7D C0 00 F1 00 00 
   742)       355.6  Rx         0088  8  FF FC 82 00 00 00 00 00 
   743)       355.9  Rx         0217  8  00 00 00 00 00 00 00 00 
   744)       357.1  Rx         0186  8  14 04 01 F9 01 F7 00 00 
   745)       357.4  Rx         0187  8  D5 14 08 28 00 E0 03 00 
   746)       358.6  Rx         0082  8  7F 08 14 00 79 80 00 00 
   747)       358.8  Rx         0085  8  7C FB 00 00 EE 70 7D 16 
   748)       359.1  Rx         03CC  8  80 00 00 00 00 00 00 00 
   749)       362.6  Rx         0091  8  7E F7 7E EC 5E BC F0 00 
   750)       362.8  Rx         0092  8  6F A4 6F A0 73 7F 46 BC 
   751)       363.1  Rx         0078  8  00 0A 00 10 00 00 00 00 
   752)       364.8  Rx         0047  8  20 00 00 00 00 00 00 00 
   753)       365.0  Rx         0165  8  10 C0 00 00 00 00 00 00 
   754)       365.3  Rx         0167  8  00 80 00 08 00 19 DC 00 
   755)       365.6  Rx         0049  8  00 00 00 00 00 00 00 00 
   756)       365.8  Rx         0076  8  3E 65 C1 80 0F FF 00 00 
   757)       366.1  Rx         0077  8  00 00 08 00 7F F7 F1 FF 
   758)       366.4  Rx         007D  8  00 00 F3 C0 00 20 08 01 
   759)       366.6  Rx         0088  8  FF FC 82 00 00 00 00 00 
   760)       366.8  Rx         0213  8  FF FF 08 0C 80 01 FF 41 
   761)       367.1  Rx         0214  8  00 00 00 00 00 00 F3 C0 
   762)       367.3  Rx         0216  8  E3 CF E2 CE 82 00 00 00 
   763)       367.6  Rx         0217  8  00 00 00 00 00 00 00 00 
   764)       367.8  Rx         0415  8  00 00 C4 FB 0F FE 0F FE 
   765)       368.1  Rx         04B0  8  D7 00 80 00 C0 00 08 F2 
   766)       368.6  Rx         0085  8  7C FB 00 00 ED 80 7D 16 
   767)       369.0  Rx         0200  8  00 00 7F F3 7F F3 00 00 
   768)       369.2  Rx         0202  8  04 F0 60 00 60 00 00 00 
   769)       369.4  Rx         0204  8  F0 00 7D C0 00 F0 00 00 
   770)       370.9  Rx         0230  8  00 00 02 FD 6D 36 F4 00 
   771)       371.9  Rx         042F  8  CD 04 00 01 90 00 00 00 
   772)       372.5  Rx         0091  8  7E F4 7E EC 5C C1 F0 00 
   773)       372.8  Rx         0092  8  6F A4 6F A0 73 89 37 C1 
   774)       374.0  Rx         03A8  8  01 00 26 F5 00 00 00 00 
   775)       374.5  Rx         023A  8  81 C0 DF 0F 88 03 E4 00 
   776)       374.8  Rx         0167  8  00 80 00 08 00 19 DC 00 
   777)       375.0  Rx         0204  8  F4 00 7D C0 00 EF 00 00 
   778)       375.7  Rx         0088  8  FF FC 82 00 00 00 00 00 
   779)       375.9  Rx         0217  8  00 00 00 00 00 00 00 00 
   780)       377.0  Rx         0186  8  14 04 01 F9 01 F7 00 00 
   781)       377.3  Rx         0187  8  D5 14 08 28 00 E0 03 00 
   782)       378.3  Rx         0455  8  00 00 00 00 00 00 00 00 
   783)       378.6  Rx         0082  8  80 08 14 00 79 80 00 00 
   784)       378.9  Rx         0085  8  7C FB 00 00 EC 90 7D 16 
   785)       380.4  Rx         0242  8  00 CE 1E 43 C2 00 00 01 
   786)       381.1  Rx         03D6  8  AA FF FE FE 00 00 FF 7F 
   787)       381.3  Rx         03CA  8  FD 80 08 00 00 00 00 00 
   788)       382.1  Rx         03EB  8  DC 04 14 04 0E 10 00 00 
   789)       382.3  Rx         0091  8  7E F4 7E ED 56 C6 F0 00 
   790)       382.5  Rx         040A  8  C1 04 01 B4 08 32 44 42 
   791)       382.8  Rx         0092  8  6F A4 6F A1 73 7F 3B C6 
   792)       383.0  Rx         042C  8  80 02 00 00 2D 50 00 00 
   793)       383.8  Rx         0078  8  01 0A 80 10 00 00 00 00 
   794)       384.1  Rx         0422  8  00 00 00 82 3C 02 FE 00 
   795)       384.3  Rx         0423  8  6D 20 00 00 00 00 00 00 
   796)       384.6  Rx         0430  8  3F 00 BC AB C8 5E 73 5C 
   797)       384.8  Rx         0047  8  20 00 00 00 00 00 00 00 
   798)       385.6  Rx         0165  8  10 C0 00 00 00 00 00 00 
   799)       385.8  Rx         0049  8  00 00 00 00 00 00 00 00 
   800)       386.0  Rx         0076  8  3E 65 C1 80 0F FF 00 00 
   801)       386.3  Rx         0077  8  00 00 08 00 7F F7 F1 FF 
   802)       386.5  Rx         007D  8  00 00 F2 D0 00 20 37 FF 
   803)       386.8  Rx         0088  8  FF FC 82 00 00 00 00 00 
   804)       387.0  Rx         0167  8  00 80 00 08 00 19 DC 00 
   805)       387.3  Rx         0213  8  FF FF 08 0C 80 01 FF 41 
   806)       387.5  Rx         0214  8  00 00 00 00 00 00 F2 D0 
   807)       387.7  Rx         0216  8  E3 CF E2 CE 82 00 00 00 
   808)       388.0  Rx         0217  8  00 00 00 00 00 00 00 00 
   809)       388.2  Rx         0415  8  00 00 C8 FA 0F FE 0F FE 
   810)       388.5  Rx         0178  8  00 00 02 00 0E 42 CA 1D 
   811)       388.7  Rx         0085  8  7C FB 00 00 EB A0 7D 16 
   812)       389.0  Rx         03CC  8  80 00 00 00 00 00 00 00 
   813)       389.2  Rx         04B0  8  D7 00 80 00 D0 00 08 F1 
   814)       390.0  Rx         0200  8  00 00 7F F3 7F F3 00 00 
   815)       390.2  Rx         0202  8  04 EE 70 00 60 00 00 00 
   816)       390.5  Rx         0204  8  F8 00 7D C0 00 EE 00 00 
   817)       392.1  Rx         0230  8  00 00 03 FC 6D 36 F4 00 
   818)       392.6  Rx         0091  8  7E F8 7E EE 4C CB F0 00 
   819)       392.9  Rx         0092  8  6F A3 6F A2 73 75 40 CB 
   820)       393.1  Rx         0261  8  00 00 10 00 00 00 00 00 
   821)       393.3  Rx         0334  8  24 72 72 00 00 FF 40 00 
   822)       394.4  Rx         023A  8  81 C0 DF 0F 88 03 E4 00 
   823)       394.7  Rx         03A8  8  01 00 26 F5 00 00 00 00 
   824)       395.0  Rx         0167  8  00 80 00 08 00 19 DC 00 
   825)       395.5  Rx         0204  8  FC 00 7D C0 00 ED 00 00 
   826)       395.8  Rx         0088  8  FF FC 82 00 00 00 00 00 
   827)       396.0  Rx         0217  8  00 00 00 00 00 00 00 00 
   828)       396.3  Rx         042F  8  CD 04 00 01 90 00 00 00 
   829)       396.9  Rx         0186  8  14 04 01 F9 01 F7 00 00 
   830)       397.2  Rx         0187  8  D5 14 08 28 00 E0 03 00 
   831)       397.4  Rx         018A  8  00 20 10 01 31 00 00 00 
   832)       398.6  Rx         0082  8  80 08 14 00 79 80 00 00 
   833)       398.9  Rx         0085  8  7C FB 00 00 EA B0 7D 16 
   834)       402.5  Rx         059E  8  9E 00 FF FF FF FF FF FF 
   835)       402.8  Rx         0091  8  7E FB 7E EB 47 D0 F0 00 
   836)       403.0  Rx         0078  8  05 0B 80 10 00 00 00 00 
   837)       403.3  Rx         0092  8  6F A3 6F A1 73 89 28 D0 
   838)       404.8  Rx         0047  8  20 00 00 00 00 00 00 00 
   839)       405.0  Rx         0165  8  10 C0 00 00 00 00 00 00 
   840)       405.3  Rx         0167  8  00 80 00 08 00 19 DC 00 
   841)       405.7  Rx         0049  8  00 00 00 00 00 00 00 00 
   842)       405.9  Rx         0076  8  3E 65 C1 80 0F FF 00 00 
   843)       406.2  Rx         0077  8  00 00 08 00 7F F7 F1 FF 
   844)       406.4  Rx         007D  8  00 00 F1 E0 00 1F D8 00 
   845)       406.6  Rx         0088  8  FF FC 82 00 00 00 00 00 
   846)       406.9  Rx         0213  8  FF FF 08 0C 80 01 FF 41 
   847)       407.1  Rx         0214  8  00 00 00 00 00 00 F1 E0 
   848)       407.4  Rx         0216  8  E3 CF E2 CE 82 00 00 00 
   849)       407.6  Rx         0217  8  00 00 00 00 00 00 00 00 
   850)       407.9  Rx         0415  8  00 00 CC F9 0F FE 0F FE 
   851)       408.1  Rx         04B0  8  D7 00 80 00 E0 00 08 F0 
   852)       408.3  Rx         0200  8  00 00 7F F3 7F F3 00 00 
   853)       408.6  Rx         0202  8  04 FC 00 00 60 00 00 00 
   854)       408.8  Rx         0085  8  7C FB 00 00 E9 C0 7D 16 
   855)       409.1  Rx         0204  8  C0 00 7D C0 00 FC 00 00 
   856)       410.1  Rx         0230  8  00 00 04 FB 6D 36 F4 00 
   857)       411.1  Rx         03D6  8  AA FF FE FE 00 00 FF 7F 
   858)       411.3  Rx         03CA  8  FD 80 08 00 00 00 00 00 
   859)       412.6  Rx         0091  8  7E FB 7E E7 46 D5 F0 00 
   860)       412.9  Rx         0092  8  6F A3 6F A0 73 7F 2E D5 
   861)       414.1  Rx         03A8  8  01 00 26 F5 00 00 00 00 
   862)       414.4  Rx         023A  8  81 C0 DF 0F 88 03 E4 00 
   863)       414.7  Rx         0167  8  00 80 00 08 00 19 DC 00 
   864)       415.0  Rx         0204  8  C4 00 7D C0 00 FB 00 00 
   865)       415.6  Rx         0088  8  FF FC 82 00 00 00 00 00 
   866)       415.9  Rx         0217  8  00 00 00 00 00 00 00 00 
   867)       417.0  Rx         0186  8  14 04 01 F9 01 F7 00 00 
   868)       417.3  Rx         0187  8  D5 14 08 28 00 E0 03 00 
   869)       418.6  Rx         0082  8  80 08 14 00 79 80 00 00 
   870)       418.8  Rx         0085  8  7C FB 00 00 E8 D0 7D 16 
   871)       419.1  Rx         03CC  8  80 00 00 00 00 00 00 00 
   872)       420.1  Rx         0242  8  00 CE 1E 43 C2 00 00 01 
   873)       422.7  Rx         0091  8  7E F7 7E E4 48 DA F0 00 
   874)       422.9  Rx         0092  8  6F A4 6F 9F 73 75 33 DA 
   875)       423.1  Rx         0078  8  00 0A 00 10 00 00 00 00 
   876)       424.8  Rx         0047  8  20 00 00 00 00 00 00 00 
   877)       425.1  Rx         0165  8  10 C0 00 00 00 00 00 00 
   878)       425.3  Rx         0167  8  00 80 00 08 00 19 DC 00 
   879)       425.6  Rx         0049  8  00 00 00 00 00 00 00 00 
   880)       425.9  Rx         0076  8  3E 65 C1 80 0F FF 00 00 
   881)       426.1  Rx         0077  8  00 00 07 FF 7F F7 F1 FF 
   882)       426.3  Rx         007D  8  00 00 F0 F0 00 20 08 00 
   883)       426.6  Rx         0088  8  FF FC 82 00 00 00 00 00 
   884)       426.9  Rx         0213  8  FF FF 08 0C 80 01 FF 41 
   885)       427.1  Rx         0214  8  00 00 00 00 00 00 F0 F0 
   886)       427.3  Rx         0216  8  E3 CF E2 CE 82 00 00 00 
   887)       427.6  Rx         0217  8  00 00 00 00 00 00 00 00 
   888)       427.8  Rx         0415  8  00 00 D0 F8 0F FE 0F FE 
   889)       428.1  Rx         0416  8  57 00 F7 04 01 00 00 00 
   890)       428.3  Rx         04B0  8  D7 00 80 00 F0 00 08 EF 
   891)       428.6  Rx         0085  8  7C FB 00 00 E7 E0 7D 16 
   892)       429.0  Rx         0200  8  00 00 7F F3 7F F3 00 00 
   893)       429.2  Rx         0202  8  04 FA 10 00 60 00 00 00 
   894)       429.5  Rx         0204  8  C8 00 7D C0 00 FA 00 00 
   895)       430.9  Rx         0230  8  00 00 05 FA 6D 36 F4 00 
   896)       432.6  Rx         042C  8  80 02 00 00 2D 50 00 00 
   897)       432.8  Rx         004A  8  02 00 00 18 00 00 00 00 
   898)       433.0  Rx         004B  8  00 18 00 C0 18 D8 D8 00 
   899)       433.3  Rx         004C  8  20 AA A2 40 00 00 00 00 
   900)       433.6  Rx         0091  8  7E F4 7E E7 43 DF F0 00 
   901)       433.8  Rx         0092  8  6F A4 6F 9E 73 92 12 DF 
   902)       434.0  Rx         03A8  8  01 00 26 F5 00 00 00 00 
   903)       434.2  Rx         042F  8  CD 04 00 01 90 00 00 00 
   904)       434.5  Rx         023A  8  81 C0 DF 0F 88 03 E4 00 
   905)       434.7  Rx         0167  8  00 80 00 08 00 19 DC 00 
   906)       435.0  Rx         0204  8  CC 00 7D C0 00 F9 00 00 
   907)       435.5  Rx         0261  8  00 00 10 00 00 00 00 00 
   908)       435.7  Rx         0088  8  FF FC 82 00 00 00 00 00 
   909)       436.0  Rx         0217  8  00 00 00 00 00 00 00 00 
   910)       436.7  Rx         0186  8  14 04 01 F9 01 F7 00 00 
   911)       436.9  Rx         0187  8  D4 14 08 28 00 F0 03 00 
   912)       438.6  Rx         0082  8  80 08 14 00 79 80 00 00 
   913)       438.8  Rx         0085  8  7C FB 00 00 E6 F0 7D 16 
   914)       441.1  Rx         03D6  8  AA FF FE FE 00 00 FF 7F 
   915)       441.4  Rx         03CA  8  FD 80 08 00 00 00 00 00 
   916)       442.7  Rx         0091  8  7E F3 7E EC 3A E4 F0 00 
   917)       443.0  Rx         0092  8  6F A4 6F A0 73 75 28 E4 
   918)       443.2  Rx         0078  8  01 0A 80 10 00 00 00 00 
   919)       444.7  Rx         0047  8  20 00 00 00 00 00 00 00 
   920)       445.0  Rx         0165  8  10 C0 00 00 00 00 00 00 
   921)       445.2  Rx         0167  8  00 80 00 08 00 19 DC 00 
   922)       445.6  Rx         0049  8  00 00 00 00 00 00 00 00 
   923)       445.9  Rx         0076  8  3E 65 C1 80 0F FF 00 00 
   924)       446.1  Rx         0077  8  00 00 07 FF 7F F7 F1 FF 
   925)       446.4  Rx         007D  8  00 00 FF 00 00 20 57 FF 
   926)       446.6  Rx         0088  8  FF FC 82 00 00 00 00 00 
   927)       446.9  Rx         0213  8  FF FF 08 0C 80 01 FF 41 
   928)       447.1  Rx         0214  8  00 00 00 00 00 00 FF 00 
   929)       447.3  Rx         0216  8  E3 CF E2 CE 82 00 00 00 
   930)       447.6  Rx         0217  8  00 00 00 00 00 00 00 00 
   931)       447.8  Rx         0415  8  00 00 D4 F7 0F FE 0F FE 
   932)       448.1  Rx         04B0  8  D7 00 80 00 00 00 08 FE 
   933)       448.3  Rx         0200  8  00 00 7F F3 7F F3 00 00 
   934)       448.6  Rx         0202  8  04 F8 20 00 60 00 00 00 
   935)       448.8  Rx         0085  8  7C FB 00 00 F5 00 7D 16 
   936)       449.0  Rx         0204  8  D0 00 7D C0 00 F8 00 00 
   937)       449.3  Rx         03CC  8  80 00 00 00 00 00 00 00 
   938)       450.1  Rx         0230  8  00 00 06 F9 6D 36 F4 00 
   939)       450.8  Rx         0334  8  24 72 72 00 00 FF 40 00 
   940)       452.5  Rx         0083  8  00 00 00 00 00 00 00 00 
   941)       452.8  Rx         02A1  8  FF FF FF FF 00 00 00 00 
   942)       453.0  Rx         0091  8  7E F1 7E ED 36 E9 F0 00 
   943)       453.3  Rx         0092  8  6F A5 6F A0 73 89 0E E9 
   944)       453.5  Rx         03A8  8  01 00 26 F5 00 00 00 00 
   945)       454.5  Rx         023A  8  81 C0 DF 0F 88 03 E4 00 
   946)       454.7  Rx         0167  8  00 80 00 08 00 19 DC 00 
   947)       455.2  Rx         0204  8  D4 00 7D C0 00 F7 00 00 
   948)       455.7  Rx         0088  8  FF FC 82 00 00 00 00 00 
   949)       455.9  Rx         0217  8  00 00 00 00 00 00 00 00 
   950)       456.1  Rx         042F  8  CD 04 00 01 90 00 00 00 
   951)       456.6  Rx         0186  8  14 04 01 F9 01 F7 00 00 
   952)       456.8  Rx         0187  8  D4 14 08 28 00 F0 03 00 
   953)       458.6  Rx         0082  8  80 08 14 00 79 80 00 00 
   954)       458.9  Rx         0085  8  7C FB 00 00 F4 10 7D 16 
   955)       460.3  Rx         0242  8  00 CE 1E 43 C2 00 00 01 
   956)       462.8  Rx         0091  8  7E F1 7E EB 33 EE F0 00 
   957)       463.0  Rx         0092  8  6F A5 6F A0 73 89 09 EE 
   958)       463.3  Rx         0078  8  01 0A 80 10 00 00 00 00 
   959)       464.8  Rx         0047  8  20 00 00 00 00 00 00 00 
   960)       465.0  Rx         0165  8  10 C0 00 00 00 00 00 00 
   961)       465.3  Rx         0167  8  00 80 00 08 00 19 DC 00 
   962)       465.6  Rx         0049  8  00 00 00 00 00 00 00 00 
   963)       465.9  Rx         0076  8  3E 65 C1 80 0F FF 00 00 
   964)       466.1  Rx         0077  8  00 00 08 00 7F F7 F1 FF 
   965)       466.4  Rx         007D  8  00 00 FE 10 00 20 37 FF 
   966)       466.6  Rx         0088  8  FF FC 82 00 00 00 00 00 
   967)       466.8  Rx         0213  8  FF FF 08 0C 80 01 FF 41 
   968)       467.1  Rx         0214  8  00 00 00 00 00 00 FE 10 
   969)       467.3  Rx         0216  8  E3 CF E2 CE 82 00 00 00 
   970)       467.6  Rx         0217  8  00 00 00 00 00 00 00 00 
   971)       467.8  Rx         0415  8  00 00 D8 F6 0F FE 0F FE 
   972)       468.1  Rx         04B0  8  D7 00 80 00 10 00 08 FD 
   973)       468.3  Rx         0200  8  00 00 7F F3 7F F3 00 00 
   974)       468.5  Rx         0202  8  04 F6 30 00 60 00 00 00 
   975)       468.8  Rx         0085  8  7C FB 00 00 F3 20 7D 16 
   976)       469.1  Rx         0204  8  D8 00 7D C0 00 F6 00 00 
   977)       470.2  Rx         0230  8  00 00 07 F8 6D 36 F4 00 
   978)       471.1  Rx         03D6  8  AA FF FE FE 00 00 FF 7F 
   979)       471.4  Rx         03CA  8  FD 80 08 00 00 00 00 00 
   980)       472.8  Rx         0091  8  7E F4 7E E8 2E F3 F0 00 
   981)       473.0  Rx         0092  8  6F A6 6F 9F 73 6B 22 F3 
   982)       473.7  Rx         03A8  8  01 00 26 F5 00 00 00 00 
   983)       474.4  Rx         023A  8  81 C0 DF 0F 88 03 E4 00 
   984)       474.7  Rx         0167  8  00 80 00 08 00 19 DC 00 
   985)       475.0  Rx         0204  8  DC 00 7D C0 00 F5 00 00 
   986)       475.6  Rx         0088  8  FF FC 82 00 00 00 00 00 
   987)       475.9  Rx         0217  8  00 00 00 00 00 00 00 00 
   988)       476.3  Rx         0186  8  14 04 01 F9 01 F7 00 00 
   989)       476.5  Rx         0187  8  D4 14 08 28 00 F0 03 00 
   990)       478.1  Rx         03E2  8  00 00 00 00 80 00 00 00 
   991)       478.6  Rx         0082  8  80 08 14 00 79 80 00 00 
   992)       478.9  Rx         0085  8  7C FB 00 00 F2 30 7D 16 
   993)       479.1  Rx         03CC  8  80 00 00 00 00 00 00 00 
   994)       479.3  Rx         0455  8  00 00 00 00 00 00 00 00 
   995)       480.2  Rx         03B3  8  44 88 C4 0C 10 01 00 2A 
   996)       480.7  Rx         03C3  8  5C C8 00 00 00 00 01 00 
   997)       481.0  Rx         042C  8  80 02 00 00 2D 50 00 00 
   998)       482.5  Rx         0091  8  7E F5 7E E5 2B F8 F0 00 
   999)       482.7  Rx         0092  8  6F A8 6F 9F 73 89 FD F8 
  1000)       483.7  Rx         0078  8  00 0A 00 10 00 00 00 00 
  1001)       484.0  Rx         0422  8  00 00 00 82 3C 02 FE 00 
  1002)       484.2  Rx         0423  8  6D 20 00 00 00 00 00 00 
  1003)       484.5  Rx         03AA  8  00 22 20 FF 0F F0 EE EE 
  1004)       484.7  Rx         03AB  8  12 7F 07 F0 78 EE E0 00 
  1005)       485.0  Rx         0047  8  20 00 00 00 00 00 00 00 
  1006)       485.2  Rx         0430  8  3F 00 BC AB C8 5E 73 5C 
  1007)       485.5  Rx         0165  8  10 C0 00 00 00 00 00 00 
  1008)       485.8  Rx         0049  8  00 00 00 00 00 00 00 00 
  1009)       486.0  Rx         0076  8  3E 65 C1 80 0F FF 00 00 
  1010)       486.2  Rx         0077  8  00 00 07 FF 7F F7 F1 FF 
  1011)       486.5  Rx         007D  8  00 00 FD 20 00 1F A7 FF 
  1012)       486.8  Rx         0088  8  FF FC 82 00 00 00 00 00 
  1013)       487.0  Rx         0167  8  00 80 00 08 00 19 DC 00 
  1014)       487.2  Rx         0213  8  FF FF 08 0C 80 01 FF 41 
  1015)       487.5  Rx         0214  8  00 00 00 00 00 00 FD 20 
  1016)       487.7  Rx         0216  8  E3 CF E2 CE 82 00 00 00 
  1017)       488.0  Rx         0217  8  00 00 00 00 00 00 00 00 
  1018)       488.2  Rx         0415  8  00 00 DC F5 0F FE 0F FE 
  1019)       488.4  Rx         04B0  8  D7 00 80 00 20 00 08 FC 
  1020)       488.7  Rx         0085  8  7C FB 00 00 F1 40 7D 16 
  1021)       488.9  Rx         0178  8  00 00 02 00 0E 42 CA 1D 
  1022)       490.9  Rx         0200  8  00 00 7F F3 7F F3 00 00 
  1023)       491.2  Rx         0202  8  04 F4 40 00 60 00 00 00 
  1024)       491.4  Rx         0204  8  E0 00 7D C0 00 F4 00 00 
  1025)       492.6  Rx         0091  8  7E F9 7E E6 21 FD F0 00 
  1026)       492.8  Rx         0092  8  6F A8 6F A0 73 7F 01 FD 
  1027)       493.0  Rx         0230  8  00 00 08 F7 6D 36 F4 00 
  1028)       493.8  Rx         0261  8  00 00 10 00 00 00 00 00 
  1029)       494.3  Rx         03A8  8  01 00 26 F5 00 00 00 00 
  1030)       494.5  Rx         023A  8  81 C0 DF 0F 88 03 E4 00 
  1031)       495.0  Rx         0167  8  00 80 00 08 00 19 DC 00 
  1032)       495.2  Rx         0350  8  00 00 00 00 00 00 00 00 
  1033)       495.5  Rx         0204  8  E4 00 7D C0 00 F3 00 00 
  1034)       495.7  Rx         0088  8  FF FC 82 00 00 00 00 00 
  1035)       496.0  Rx         0217  8  00 00 00 00 00 00 00 00 
  1036)       496.2  Rx         0186  8  14 04 01 F9 01 F7 00 00 
  1037)       496.4  Rx         0187  8  D4 14 08 28 00 F0 03 00 
  1038)       496.7  Rx         018A  8  00 20 10 01 31 00 00 00 
  1039)       497.0  Rx         042F  8  CD 04 00 01 90 00 00 00 
  1040)       498.1  Rx         03E0  8  00 00 00 00 80 00 00 00 
  1041)       498.6  Rx         0082  8  80 08 14 00 79 80 00 00 
  1042)       498.8  Rx         0085  8  7C FB 00 00 F0 50 7D 16 
  1043)       500.3  Rx         0242  8  00 CE 1E 42 C2 00 00 01 
  1044)       501.1  Rx         03D6  8  AA FF FE FE 00 00 FF 7F 
  1045)       501.4  Rx         03CA  8  FD 80 08 00 00 00 00 00 
  1046)       502.9  Rx         0091  8  7E F9 7E E6 1C 02 F0 00 
  1047)       503.1  Rx         0092  8  6F A6 6F A2 73 75 06 02 
  1048)       504.0  Rx         0078  8  05 0B 80 10 00 00 00 00 
  1049)       504.8  Rx         0047  8  20 00 00 00 00 00 00 00 
  1050)       505.1  Rx         0165  8  10 C0 00 00 00 00 00 00 
  1051)       505.3  Rx         0167  8  00 80 00 08 00 19 DC 00 
  1052)       505.7  Rx         0049  8  00 00 00 00 00 00 00 00 
  1053)       505.9  Rx         0076  8  3E 65 C1 80 0F FF 00 00 
  1054)       506.2  Rx         0077  8  00 00 07 FE 7F F7 F5 FF 
  1055)       506.4  Rx         007D  8  00 00 FC 30 00 20 08 00 
  1056)       506.6  Rx         0088  8  FF FC 82 00 00 00 00 00 
  1057)       506.9  Rx         0213  8  FF FF 08 0C 80 01 FF 41 
  1058)       507.1  Rx         0214  8  00 00 00 00 00 00 FC 30 
  1059)       507.4  Rx         0216  8  E3 CF E2 CE 82 00 00 00 
  1060)       507.6  Rx         0217  8  00 00 00 00 00 00 00 00 
  1061)       507.8  Rx         0415  8  00 00 E0 F4 0F FE 0F FE 
  1062)       508.1  Rx         04B0  8  D7 00 80 00 30 00 08 FB 
  1063)       508.3  Rx         0200  8  00 00 7F F3 7F F3 00 00 
  1064)       508.6  Rx         0202  8  04 F2 50 00 60 00 00 00 
  1065)       508.8  Rx         0085  8  7C FB 00 00 EF 60 7D 16 
  1066)       509.1  Rx         0204  8  E8 00 7D C0 00 F2 00 00 
  1067)       509.3  Rx         03CC  8  80 00 00 00 00 00 00 00 
  1068)       510.1  Rx         0230  8  00 00 09 F6 6D 36 F4 00 
  1069)       511.1  Rx         0334  8  24 72 72 00 00 FF 40 00 
  1070)       512.9  Rx         0091  8  7E F4 7E E9 19 07 F0 00 
  1071)       513.1  Rx         0092  8  6F A2 6F A2 73 75 05 07 
  1072)       513.4  Rx         03A8  8  01 00 26 F5 00 00 00 00 
  1073)       514.4  Rx         023A  8  81 C0 DF 0F 88 03 E4 00 
  1074)       514.7  Rx         0167  8  00 80 00 08 00 19 DC 00 
  1075)       515.2  Rx         0204  8  EC 00 7D C0 00 F1 00 00 
  1076)       515.6  Rx         0088  8  FF FC 82 00 00 00 00 00 
  1077)       515.9  Rx         0217  8  00 00 00 00 00 00 00 00 
  1078)       516.1  Rx         042F  8  CD 04 00 01 90 00 00 00 
  1079)       516.4  Rx         0186  8  14 04 01 F9 01 F7 00 00 
  1080)       516.6  Rx         0187  8  D4 14 08 28 00 F0 03 00 
  1081)       518.6  Rx         0082  8  7F 08 14 00 79 80 00 00 
  1082)       518.8  Rx         0085  8  7C FB 00 00 EE 70 7D 16 
  1083)       522.9  Rx         0091  8  7E F1 7E EE 12 0C F0 00 
  1084)       523.2  Rx         0078  8  01 0A 80 10 00 00 00 00 
  1085)       523.4  Rx         0092  8  6F A1 6F A1 73 75 02 0C 
  1086)       523.9  Rx         03A7  8  0E 40 0A 04 0A 00 00 00 
  1087)       524.7  Rx         0047  8  20 00 00 00 00 00 00 00 
  1088)       525.0  Rx         03A6  8  0E 40 0A 04 0A 00 00 00 
  1089)       525.2  Rx         0165  8  10 C0 00 00 00 00 00 00 
  1090)       525.5  Rx         0167  8  00 80 00 08 00 19 DC 00 
  1091)       525.7  Rx         0049  8  00 00 00 00 00 00 00 00 
  1092)       526.0  Rx         0076  8  3E 65 C1 80 0F FF 00 00 
  1093)       526.2  Rx         0077  8  00 00 07 FF 7F F7 ED FF 
  1094)       526.5  Rx         007D  8  00 00 FB 40 00 1F D7 FF 
  1095)       526.7  Rx         0088  8  FF FC 82 00 00 00 00 00 
  1096)       527.0  Rx         0213  8  FF FF 08 0C 80 01 FF 41 
  1097)       527.2  Rx         0214  8  00 00 00 00 00 00 FB 40 
  1098)       527.4  Rx         0216  8  E3 CF E2 CE 82 00 00 00 
  1099)       527.7  Rx         0217  8  00 00 00 00 00 00 00 00 
  1100)       527.9  Rx         0415  8  00 00 E4 F3 0F FE 0F FE 
  1101)       528.2  Rx         0416  8  58 00 F6 04 01 00 00 00 
  1102)       528.4  Rx         0200  8  00 00 7F F3 7F F3 00 00 
  1103)       528.7  Rx         0085  8  7C FB 00 00 ED 80 7D 16 
  1104)       528.9  Rx         0202  8  04 F0 60 00 60 00 00 00 
  1105)       529.1  Rx         0204  8  F0 00 7D C0 00 F0 00 00 
  1106)       529.4  Rx         04B0  8  D7 00 80 00 40 00 08 FA 
  1107)       530.1  Rx         0230  8  00 00 0A F5 6D 36 F4 00 
  1108)       531.1  Rx         03D6  8  AA FF FE FE 00 00 FF 7F 
  1109)       531.3  Rx         03CA  8  FD 80 08 00 00 00 00 00 
  1110)       531.6  Rx         042C  8  80 02 00 00 2D 50 00 00 
  1111)       532.7  Rx         004A  8  02 00 00 18 00 00 00 00 
  1112)       532.9  Rx         004B  8  00 18 00 C0 18 D8 D8 00 
  1113)       533.2  Rx         004C  8  20 AA A2 40 00 00 00 00 
  1114)       533.4  Rx         0091  8  7E F4 7E F2 06 11 F0 00 
  1115)       533.6  Rx         0092  8  6F A2 6F A0 73 75 FD 11 
  1116)       534.3  Rx         03A8  8  01 00 26 F5 00 00 00 00 
  1117)       534.5  Rx         023A  8  81 C0 DF 0F 88 03 E4 00 
  1118)       534.8  Rx         0167  8  00 80 00 08 00 19 DC 00 
  1119)       535.0  Rx         0204  8  F4 00 7D C0 00 EF 00 00 
  1120)       535.5  Rx         0261  8  00 00 10 00 00 00 00 00 
  1121)       535.7  Rx         0088  8  FF FC 82 00 00 00 00 00 
  1122)       536.0  Rx         0186  8  14 04 01 F9 01 F7 00 00 
  1123)       536.2  Rx         0187  8  E3 14 08 28 00 00 03 00 
  1124)       536.5  Rx         0217  8  00 00 00 00 00 00 00 00 
  1125)       538.6  Rx         0082  8  7F 08 14 00 79 80 00 00 
  1126)       538.9  Rx         0085  8  7C FB 00 00 EC 90 7D 16 
  1127)       539.1  Rx         03CC  8  80 00 00 00 00 00 00 00 
  1128)       540.1  Rx         0242  8  00 CE 1E 43 C2 00 00 01 
  1129)       543.0  Rx         0091  8  7E FA 7E F3 FA 16 F0 00 
  1130)       543.2  Rx         0078  8  00 0A 00 10 00 00 00 00 
  1131)       543.5  Rx         0092  8  6F A4 6F A0 73 75 F6 16 
  1132)       544.8  Rx         0047  8  20 00 00 00 00 00 00 00 
  1133)       545.0  Rx         0165  8  10 C0 00 00 00 00 00 00 
  1134)       545.3  Rx         0167  8  00 80 00 08 00 19 DC 00 
  1135)       545.6  Rx         0049  8  00 00 00 00 00 00 00 00 
  1136)       545.9  Rx         0076  8  3E 65 C1 80 0F FF 00 00 
  1137)       546.1  Rx         0077  8  00 00 08 01 7F F7 ED FF 
  1138)       546.4  Rx         007D  8  00 00 FA 50 00 1F D7 FF 
  1139)       546.6  Rx         0088  8  FF FC 82 00 00 00 00 00 
  1140)       546.8  Rx         0213  8  FF FF 08 0C 80 01 FF 41 
  1141)       547.1  Rx         0214  8  00 00 00 00 00 00 FA 50 
  1142)       547.3  Rx         0216  8  E3 CF E2 CE 82 00 00 00 
  1143)       547.6  Rx         0217  8  00 00 00 00 00 00 00 00 
  1144)       547.8  Rx         0415  8  00 00 E8 F2 0F FE 0F FE 
  1145)       548.1  Rx         04B0  8  D7 00 80 00 50 00 08 F9 
  1146)       548.6  Rx         0085  8  7C FB 00 00 EB A0 7D 16 
  1147)       549.0  Rx         0200  8  00 00 7F F3 7F F3 00 00 
  1148)       549.2  Rx         0202  8  04 EE 70 00 60 00 00 00 
  1149)       549.5  Rx         0204  8  F8 00 7D C0 00 EE 00 00 
  1150)       550.9  Rx         0230  8  00 00 0B F4 6D 36 F4 00 
  1151)       551.9  Rx         042F  8  CD 04 00 01 90 00 00 00 
  1152)       552.4  Rx         0083  8  00 00 00 00 00 00 00 00 
  1153)       552.7  Rx         02A1  8  FF FF FF FF 00 00 00 00 
  1154)       553.0  Rx         03A8  8  01 00 26 F5 00 00 00 00 
  1155)       553.2  Rx         0091  8  7E FF 7E F3 F0 1B F0 00 
  1156)       553.4  Rx         0092  8  6F A4 6F A1 73 7F E6 1B 
  1157)       554.4  Rx         023A  8  81 C0 DF 0F 88 03 E4 00 
  1158)       554.8  Rx         0167  8  00 80 00 08 00 19 DC 00 
  1159)       555.1  Rx         0204  8  FC 00 7D C0 00 ED 00 00 
  1160)       555.7  Rx         0088  8  FF FC 82 00 00 00 00 00 
  1161)       555.9  Rx         0186  8  14 04 01 F9 01 F7 00 00 
  1162)       556.1  Rx         0187  8  E3 14 08 28 00 00 03 00 
  1163)       556.4  Rx         0217  8  00 00 00 00 00 00 00 00 
  1164)       558.6  Rx         0082  8  7F 08 14 00 79 80 00 00 
  1165)       558.9  Rx         0085  8  7C FB 00 00 EA B0 7D 16 
  1166)       561.1  Rx         03D6  8  AA FF FE FE 00 00 FF 7F 
  1167)       561.3  Rx         03CA  8  FD 80 08 00 00 00 00 00 
  1168)       563.0  Rx         0078  8  01 0A 80 10 00 00 00 00 
  1169)       563.3  Rx         0091  8  7E FD 7E F0 F0 20 F0 00 
  1170)       563.5  Rx         0092  8  6F A3 6F A2 73 75 EB 20 
  1171)       564.8  Rx         0047  8  20 00 00 00 00 00 00 00 
  1172)       565.0  Rx         0165  8  10 C0 00 00 00 00 00 00 
  1173)       565.3  Rx         0167  8  00 80 00 08 00 19 DC 00 
  1174)       565.6  Rx         0049  8  00 00 00 00 00 00 00 00 
  1175)       565.9  Rx         0076  8  3E 65 C1 80 0F FF 00 00 
  1176)       566.1  Rx         0077  8  00 00 08 02 7F F7 F1 FF 
  1177)       566.3  Rx         007D  8  00 00 F9 60 00 20 08 02 
  1178)       566.6  Rx         0088  8  FF FC 82 00 00 00 00 00 
  1179)       566.8  Rx         0213  8  FF FF 08 0C 80 01 FF 41 
  1180)       567.1  Rx         0214  8  00 00 00 00 00 00 F9 60 
  1181)       567.3  Rx         0216  8  E3 CF E2 CE 82 00 00 00 
  1182)       567.6  Rx         0217  8  00 00 00 00 00 00 00 00 
  1183)       567.8  Rx         0415  8  00 00 EC F1 0F FE 0F FE 
  1184)       568.0  Rx         04B0  8  D7 00 80 00 60 00 08 F8 
  1185)       568.3  Rx         0200  8  00 00 7F F3 7F F3 00 00 
  1186)       568.6  Rx         0202  8  04 FC 00 00 60 00 00 00 
  1187)       568.8  Rx         0085  8  7C FB 00 00 E9 C0 7D 16 
  1188)       569.0  Rx         0204  8  C0 00 7D C0 00 FC 00 00 
  1189)       569.3  Rx         03CC  8  80 00 00 00 00 00 00 00 
  1190)       569.5  Rx         04BE  8  3F FF C2 00 14 61 FF FE 
  1191)       570.1  Rx         0230  8  00 00 0C F3 6D 36 F4 00 
  1192)       571.1  Rx         0334  8  24 72 72 00 00 FF 40 00 
  1193)       571.3  Rx         03EB  8  DC 04 14 04 0F 10 00 00 
  1194)       572.4  Rx         05B3  8  B3 00 FF FF FF FF FF FF 
  1195)       573.1  Rx         0091  8  7E F9 7E ED F2 25 F0 00 
  1196)       573.3  Rx         0092  8  6F A3 6F A2 73 89 D2 25 
  1197)       573.6  Rx         03A8  8  01 00 26 F5 00 00 00 00 
  1198)       574.4  Rx         023A  8  81 C0 DF 0F 88 03 E4 00 
  1199)       574.7  Rx         0167  8  00 80 00 08 00 19 DC 00 
  1200)       575.2  Rx         0204  8  C4 00 7D C0 00 FB 00 00 
  1201)       575.5  Rx         0186  8  14 04 01 F9 01 F7 00 00 
  1202)       575.7  Rx         0088  8  FF FC 82 00 00 00 00 00 
  1203)       576.0  Rx         0187  8  E3 14 08 28 00 00 03 00 
  1204)       576.2  Rx         0217  8  00 00 00 00 00 00 00 00 
  1205)       576.4  Rx         042F  8  CD 04 00 01 90 00 00 00 
  1206)       578.1  Rx         0455  8  00 00 00 00 00 00 00 00 
  1207)       578.6  Rx         0082  8  7F 08 14 00 79 80 00 00 
  1208)       578.8  Rx         0085  8  7C FB 00 00 E8 D0 7D 16 
  1209)       580.2  Rx         0242  8  00 CE 1E 44 C2 00 00 01 
  1210)       580.5  Rx         040A  8  C1 10 41 0C 60 45 00 00 
  1211)       580.7  Rx         042C  8  80 02 00 00 2D 50 00 00 
  1212)       583.1  Rx         0091  8  7E F7 7E EC F0 2A F0 00 
  1213)       583.3  Rx         0092  8  6F A4 6F A2 73 7F D6 2A 
  1214)       583.6  Rx         0078  8  01 0A 80 10 00 00 00 00 
  1215)       583.8  Rx         0422  8  00 00 00 82 3C 02 FE 00 
  1216)       584.0  Rx         0423  8  6D 20 00 00 00 00 00 00 
  1217)       584.3  Rx         0430  8  3F 00 BC AB C8 5E F3 5C 
  1218)       584.5  Rx         0431  8  15 7D 41 01 97 86 40 10 
  1219)       584.8  Rx         0047  8  20 00 00 00 00 00 00 00 
  1220)       585.6  Rx         0165  8  10 C0 00 00 00 00 00 00 
  1221)       585.8  Rx         0049  8  00 00 00 00 00 00 00 00 
  1222)       586.0  Rx         0076  8  3E 65 C1 80 0F FF 00 00 
  1223)       586.3  Rx         0077  8  00 00 08 00 7F F7 F1 FF 
  1224)       586.6  Rx         007D  8  00 00 F8 70 00 20 38 00 
  1225)       586.8  Rx         0088  8  FF FC 82 00 00 00 00 00 
  1226)       587.0  Rx         0167  8  00 80 00 08 00 19 DC 00 
  1227)       587.3  Rx         0213  8  FF FF 08 0C 80 01 FF 41 
  1228)       587.5  Rx         0214  8  00 00 00 00 00 00 F8 70 
  1229)       587.7  Rx         0216  8  E3 CF E2 CE 82 00 00 00 
  1230)       588.0  Rx         0217  8  00 00 00 00 00 00 00 00 
  1231)       588.3  Rx         0415  8  00 00 F0 F0 0F FE 0F FE 
  1232)       588.5  Rx         0178  8  00 00 02 00 0E 42 CA 1D 
  1233)       588.7  Rx         0085  8  7C FB 00 00 E7 E0 7D 16 
  1234)       589.0  Rx         04B0  8  D7 00 80 00 70 00 08 F7 
  1235)       590.0  Rx         0200  8  00 00 7F F3 7F F3 00 00 
  1236)       590.2  Rx         0202  8  04 FA 10 00 60 00 00 00 
  1237)       590.5  Rx         0204  8  C8 00 7D C0 00 FA 00 00 
  1238)       591.1  Rx         03D6  8  AA FF FE FE 00 00 FF 7F 
  1239)       591.3  Rx         03CA  8  FD 80 08 00 00 00 00 00 
  1240)       592.1  Rx         0230  8  00 00 0D F2 6D 36 F4 00 
  1241)       592.9  Rx         0261  8  00 00 10 00 00 00 00 00 
  1242)       593.1  Rx         0091  8  7E F5 7E EA EF 2F F0 00 
  1243)       593.4  Rx         0092  8  6F A6 6F A2 73 75 D9 2F 
  1244)       594.1  Rx         03A8  8  01 00 26 F5 00 00 00 00 
  1245)       594.4  Rx         023A  8  81 C0 DF 0F 88 03 E4 00 
  1246)       595.0  Rx         0167  8  00 80 00 08 00 19 DC 00 
  1247)       595.3  Rx         0186  8  14 04 01 F9 01 F7 00 00 
  1248)       595.5  Rx         0187  8  E3 14 08 28 00 00 03 00 
  1249)       595.8  Rx         0088  8  FF FC 82 00 00 00 00 00 
  1250)       596.0  Rx         018A  8  00 20 10 01 31 00 00 00 
  1251)       596.3  Rx         0204  8  CC 00 7D C0 00 F9 00 00 
  1252)       596.5  Rx         0217  8  00 00 00 00 00 00 00 00 
  1253)       598.7  Rx         0082  8  7E 08 14 00 79 80 00 00 
  1254)       598.9  Rx         0085  8  7C FB 00 00 E6 F0 7D 16 
  1255)       599.1  Rx         03CC  8  80 00 00 00 00 00 00 00 
  1256)       603.1  Rx         0078  8  04 0B 00 10 00 00 00 00 
  1257)       603.3  Rx         0091  8  7E F5 7E E9 EB 34 F0 00 
  1258)       603.5  Rx         0092  8  6F A5 6F A1 73 89 C2 34 
  1259)       604.8  Rx         0047  8  20 00 00 00 00 00 00 00 
  1260)       605.1  Rx         0165  8  10 C0 00 00 00 00 00 00 
  1261)       605.3  Rx         0167  8  00 80 00 08 00 19 DC 00 
  1262)       605.7  Rx         0049  8  00 00 00 00 00 00 00 00 
  1263)       605.9  Rx         0076  8  3E 65 C1 80 0F FF 00 00 
  1264)       606.2  Rx         0077  8  00 00 08 00 7F F7 F1 FF 
  1265)       606.4  Rx         007D  8  00 00 F7 80 00 1F D7 FF 
  1266)       606.6  Rx         0088  8  FF FC 82 00 00 00 00 00 
  1267)       606.9  Rx         0213  8  FF FF 08 0C 80 01 FF 41 
  1268)       607.2  Rx         0214  8  00 00 00 00 00 00 F7 80 
  1269)       607.4  Rx         0216  8  E3 CF E2 CE 82 00 00 00 
  1270)       607.6  Rx         0217  8  00 00 00 00 00 00 00 00 
  1271)       607.9  Rx         0415  8  00 00 F4 EF 0F FE 0F FE 
  1272)       608.1  Rx         04B0  8  D7 00 80 00 80 00 08 F6 
  1273)       608.5  Rx         04BE  8  5F FF C4 FC FF FF FF 7F 
  1274)       608.7  Rx         0085  8  7C FB 00 00 F5 00 7D 16 
  1275)       608.9  Rx         0200  8  00 00 7F F3 7F F3 00 00 
  1276)       609.2  Rx         0202  8  04 F8 20 00 60 00 00 00 
  1277)       609.5  Rx         0204  8  D0 00 7D C0 00 F8 00 00 
  1278)       610.2  Rx         0084  8  13 00 00 7F 35 06 0D 00 
  1279)       611.1  Rx         0230  8  00 00 0E F1 6D 36 F4 00 
  1280)       612.6  Rx         042F  8  CD 04 00 01 90 00 00 00 
  1281)       613.2  Rx         0091  8  7E F4 7E E9 E7 39 F0 00 
  1282)       613.4  Rx         0092  8  6F A4 6F A2 73 7F C7 39 
  1283)       613.7  Rx         03A8  8  01 00 26 F5 00 00 00 00 
  1284)       614.4  Rx         023A  8  81 C0 DF 0F 88 03 E4 00 
  1285)       614.7  Rx         0345  8  30 00 00 00 00 00 00 00 
  1286)       614.9  Rx         0167  8  00 80 00 08 00 19 DC 00 
  1287)       615.2  Rx         0186  8  14 04 01 F9 01 F7 00 00 
  1288)       615.4  Rx         0187  8  E3 14 08 28 00 00 03 00 
  1289)       615.6  Rx         0204  8  D4 00 7D C0 00 F7 00 00 
  1290)       615.9  Rx         0088  8  FF FC 82 00 00 00 00 00 
  1291)       616.2  Rx         0217  8  00 00 00 00 00 00 00 00 
  1292)       616.4  Rx         03DF  8  00 03 0B 00 80 00 00 00 
  1293)       618.6  Rx         0082  8  7F 08 14 00 79 80 00 00 
  1294)       618.9  Rx         0085  8  7C FB 00 00 F4 10 7D 16 
  1295)       620.2  Rx         0242  8  00 CE 1E 44 C2 00 00 01 
  1296)       621.1  Rx         03D6  8  AA FF FE FE 00 00 FF 7F 
  1297)       621.4  Rx         03CA  8  FD 80 08 00 00 00 00 00 
  1298)       622.3  Rx         0443  8  00 00 00 00 00 00 00 00 
  1299)       623.2  Rx         0078  8  01 0A 80 10 00 00 00 00 
  1300)       623.4  Rx         0091  8  7E F4 7E EC DF 3E F0 00 
  1301)       623.7  Rx         0092  8  6F A4 6F A1 73 7F C3 3E 
  1302)       624.8  Rx         0047  8  20 00 00 00 00 00 00 00 
  1303)       625.1  Rx         0165  8  10 C0 00 00 00 00 00 00 
  1304)       625.3  Rx         0167  8  00 80 00 08 00 19 DC 00 
  1305)       625.7  Rx         0049  8  00 00 00 00 00 00 00 00 
  1306)       625.9  Rx         0076  8  3E 65 C1 80 0F FF 00 00 
  1307)       626.1  Rx         0077  8  00 00 07 FF 7F F7 F1 FF 
  1308)       626.4  Rx         007D  8  00 00 F6 90 00 20 07 FF 
  1309)       626.6  Rx         0088  8  FF FC 82 00 00 00 00 00 
  1310)       626.9  Rx         0213  8  FF FF 08 0C 80 01 FF 41 
  1311)       627.1  Rx         0214  8  00 00 00 00 00 00 F6 90 
  1312)       627.4  Rx         0216  8  E3 CF E2 CE 82 00 00 00 
  1313)       627.6  Rx         0217  8  00 00 00 00 00 00 00 00 
  1314)       627.8  Rx         0415  8  00 00 F8 EE 0F FE 0F FE 
  1315)       628.1  Rx         0416  8  59 00 F5 04 01 00 00 00 
  1316)       628.4  Rx         0200  8  00 00 7F F3 7F F3 00 00 
  1317)       628.6  Rx         0202  8  04 F6 30 00 60 00 00 00 
  1318)       628.8  Rx         0085  8  7C FB 00 00 F3 20 7D 16 
  1319)       629.1  Rx         0204  8  D8 00 7D C0 00 F6 00 00 
  1320)       629.3  Rx         03CC  8  80 00 00 00 00 00 00 00 
  1321)       629.5  Rx         041E  8  00 00 00 00 00 00 00 00 
  1322)       629.8  Rx         04B0  8  D7 00 80 00 90 00 08 F5 
  1323)       630.1  Rx         0596  8  96 00 FF FF FF FF FF FF 
  1324)       630.3  Rx         0230  8  00 00 0F F0 6D 36 F4 00 
  1325)       631.4  Rx         0334  8  24 72 72 00 00 FF 40 00 
  1326)       632.6  Rx         042C  8  80 02 00 00 2D 50 00 00 
  1327)       633.0  Rx         004A  8  02 00 00 18 00 00 00 00 
  1328)       633.2  Rx         004B  8  00 18 00 C0 18 D8 D8 00 
  1329)       633.5  Rx         004C  8  20 AA A2 40 00 00 00 00 
  1330)       633.7  Rx         0091  8  7E F7 7E EE D5 43 F0 00 
  1331)       633.9  Rx         0092  8  6F A4 6F A0 73 7F BF 43 
  1332)       634.3  Rx         03A8  8  01 00 26 F5 00 00 00 00 
  1333)       634.5  Rx         023A  8  81 C0 DF 0F 88 03 E4 00 
  1334)       634.8  Rx         0167  8  00 80 00 08 00 19 DC 00 
  1335)       635.0  Rx         0186  8  14 04 01 F9 01 F7 00 00 
  1336)       635.3  Rx         0187  8  E3 14 08 28 00 00 03 00 
  1337)       635.5  Rx         0204  8  DC 00 7D C0 00 F5 00 00 
  1338)       635.7  Rx         0088  8  FF FC 82 00 00 00 00 00 
  1339)       636.0  Rx         0217  8  00 00 00 00 00 00 00 00 
  1340)       636.2  Rx         0261  8  00 00 10 00 00 00 00 00 
  1341)       636.5  Rx         042F  8  CD 04 00 01 90 00 00 00 
  1342)       638.6  Rx         0082  8  7F 08 14 00 79 80 00 00 
  1343)       638.9  Rx         0085  8  7C FB 00 00 F2 30 7D 16 
  1344)       643.0  Rx         0091  8  7E FB 7E F0 CA 48 F0 00 
  1345)       643.2  Rx         0078  8  01 0A 80 10 00 00 00 00 
  1346)       643.5  Rx         0092  8  6F A3 6F A0 73 75 C5 48 
  1347)       644.8  Rx         0047  8  20 00 00 00 00 00 00 00 
  1348)       645.0  Rx         0165  8  10 C0 00 00 00 00 00 00 
  1349)       645.3  Rx         0167  8  00 80 00 08 00 19 DC 00 
  1350)       645.6  Rx         0049  8  00 00 00 00 00 00 00 00 
  1351)       645.9  Rx         0076  8  3E 65 C1 80 0F FF 00 00 
  1352)       646.1  Rx         0077  8  00 00 08 00 7F F7 F1 FF 
  1353)       646.4  Rx         007D  8  00 00 F5 A0 00 20 08 00 
  1354)       646.6  Rx         0088  8  FF FC 82 00 00 00 00 00 
  1355)       646.9  Rx         0213  8  FF FF 08 0C 80 01 FF 41 
  1356)       647.1  Rx         0214  8  00 00 00 00 00 00 F5 A0 
  1357)       647.3  Rx         0216  8  E3 CF E2 CE 82 00 00 00 
  1358)       647.6  Rx         0217  8  00 00 00 00 00 00 00 00 
  1359)       647.9  Rx         0415  8  00 00 FC ED 0F FE 0F FE 
  1360)       648.1  Rx         04B0  8  D7 00 80 00 A0 00 08 F4 
  1361)       648.3  Rx         0200  8  00 00 7F F3 7F F3 00 00 
  1362)       648.6  Rx         0202  8  04 F4 40 00 60 00 00 00 
  1363)       648.8  Rx         0085  8  7C FB 00 00 F1 40 7D 16 
  1364)       649.0  Rx         0204  8  E0 00 7D C0 00 F4 00 00 
  1365)       650.2  Rx         0230  8  00 00 00 FF 6D 36 F4 00 
  1366)       651.1  Rx         03D6  8  AA FF FE FE 00 00 FF 7F 
  1367)       651.4  Rx         03CA  8  FD 80 08 00 00 00 00 00 
  1368)       652.4  Rx         0083  8  00 00 00 00 00 00 00 00 
  1369)       652.7  Rx         02A1  8  FF FF FF FF 00 00 00 00 
  1370)       653.0  Rx         0091  8  7E FE 7E F2 C0 4D F0 00 
  1371)       653.2  Rx         0092  8  6F A3 6F A0 73 7F B6 4D 
  1372)       653.8  Rx         03A8  8  01 00 26 F5 00 00 00 00 
  1373)       654.4  Rx         023A  8  81 C0 DF 0F 88 03 E4 00 
  1374)       654.7  Rx         0167  8  00 80 00 08 00 19 DC 00 
  1375)       655.0  Rx         0186  8  14 04 01 F9 01 F7 00 00 
  1376)       655.2  Rx         0187  8  E2 14 08 28 00 10 03 00 
  1377)       655.4  Rx         0204  8  E4 00 7D C0 00 F3 00 00 
  1378)       655.7  Rx         0088  8  FF FC 82 00 00 00 00 00 
  1379)       656.0  Rx         0217  8  00 00 00 00 00 00 00 00 
  1380)       658.6  Rx         0082  8  7F 08 14 00 79 80 00 00 
  1381)       658.9  Rx         0085  8  7C FB 00 00 F0 50 7D 16 
  1382)       659.1  Rx         03CC  8  80 00 00 00 00 00 00 00 
  1383)       660.1  Rx         0242  8  00 CE 1E 44 C2 00 00 01 
  1384)       663.2  Rx         0078  8  00 0A 00 10 00 00 00 00 
  1385)       663.4  Rx         0091  8  7E FE 7E F3 BA 52 F0 00 
  1386)       663.6  Rx         0092  8  6F A3 6F A0 73 89 A7 52 
  1387)       664.8  Rx         0047  8  20 00 00 00 00 00 00 00 
  1388)       665.0  Rx         0165  8  10 C0 00 00 00 00 00 00 
  1389)       665.3  Rx         0167  8  00 80 00 08 00 19 DC 00 
  1390)       665.6  Rx         0049  8  00 00 00 00 00 00 00 00 
  1391)       665.9  Rx         0076  8  3E 65 C1 80 0F FF 00 00 
  1392)       666.1  Rx         0077  8  00 00 08 01 7F F7 F1 FF 
  1393)       666.4  Rx         007D  8  00 00 F4 B0 00 20 08 01 
  1394)       666.6  Rx         0088  8  FF FC 82 00 00 00 00 00 
  1395)       666.8  Rx         0213  8  FF FF 08 0C 80 01 FF 41 
  1396)       667.1  Rx         0214  8  00 00 00 00 00 00 F4 B0 
  1397)       667.3  Rx         0216  8  E3 CF E2 CE 82 00 00 00 
  1398)       667.6  Rx         0217  8  00 00 00 00 00 00 00 00 
  1399)       667.8  Rx         0415  8  00 00 C0 FC 0F FE 0F FE 
  1400)       668.0  Rx         04B0  8  D7 00 80 00 B0 00 08 F3 
  1401)       668.6  Rx         0085  8  7C FB 00 00 EF 60 7D 16 
  1402)       669.0  Rx         0200  8  00 00 7F F3 7F F3 00 00 
  1403)       669.2  Rx         0202  8  04 F2 50 00 60 00 00 00 
  1404)       669.4  Rx         0204  8  E8 00 7D C0 00 F2 00 00 
  1405)       670.9  Rx         0230  8  00 00 01 FE 6D 36 F4 00 
  1406)       672.1  Rx         042F  8  CD 04 00 01 90 00 00 00 
  1407)       673.4  Rx         0091  8  7E FC 7E F2 B8 57 F0 00 
  1408)       673.6  Rx         0092  8  6F A4 6F A0 73 7F AB 57 
  1409)       674.0  Rx         03A8  8  01 00 26 F5 00 00 00 00 
  1410)       674.4  Rx         023A  8  81 C0 DF 0F 88 03 E4 00 
  1411)       674.7  Rx         0186  8  14 04 01 F9 01 F7 00 00 
  1412)       674.9  Rx         0167  8  00 80 00 08 00 19 DC 00 
  1413)       675.2  Rx         0187  8  E2 14 08 28 00 10 03 00 
  1414)       675.4  Rx         0204  8  EC 00 7D C0 00 F1 00 00 
  1415)       675.7  Rx         0088  8  FF FC 82 00 00 00 00 00 
  1416)       676.0  Rx         0217  8  00 00 00 00 00 00 00 00 
  1417)       678.1  Rx         0455  8  00 00 00 00 00 00 00 00 
  1418)       678.6  Rx         0082  8  7F 08 14 00 79 80 00 00 
  1419)       678.9  Rx         0085  8  7C FB 00 00 EE 70 7D 16 
  1420)       680.5  Rx         042C  8  80 02 00 00 2D 50 00 00 
  1421)       681.1  Rx         03D6  8  AA FF FE FE 00 00 FF 7F 
  1422)       681.4  Rx         03CA  8  FD 80 08 00 00 00 00 00 
  1423)       683.1  Rx         0091  8  7E F8 7E EF BA 5C F0 00 
  1424)       683.4  Rx         0078  8  01 0A 80 10 00 00 00 00 
  1425)       683.6  Rx         0092  8  6F A5 6F A0 73 75 AF 5C 
  1426)       683.8  Rx         0422  8  00 00 00 82 3C 02 FE 00 
  1427)       684.1  Rx         0423  8  6D 20 00 00 00 00 00 00 
  1428)       684.3  Rx         03AA  8  00 22 20 FF 0F F0 EE EE 
  1429)       684.5  Rx         03AB  8  12 7F 07 F0 78 EE E0 00 
  1430)       684.8  Rx         0430  8  3F 00 BC AB C8 5E 73 5C 
  1431)       685.0  Rx         0047  8  20 00 00 00 00 00 00 00 
  1432)       685.6  Rx         0049  8  00 00 00 00 00 00 00 00 
  1433)       685.8  Rx         0076  8  3E 65 C1 80 0F FF 00 00 
  1434)       686.1  Rx         0077  8  00 00 08 01 7F F7 F1 FF 
  1435)       686.3  Rx         007D  8  00 00 F3 C0 00 20 08 01 
  1436)       686.6  Rx         0088  8  FF FC 82 00 00 00 00 00 
  1437)       686.9  Rx         0165  8  10 C0 00 00 00 00 00 00 
  1438)       687.1  Rx         0167  8  00 80 00 08 00 19 DC 00 
  1439)       687.3  Rx         0213  8  FF FF 08 0C 80 01 FF 41 
  1440)       687.6  Rx         0214  8  00 00 00 00 00 00 F3 C0 
  1441)       687.8  Rx         0216  8  E3 CF E2 CE 82 00 00 00 
  1442)       688.0  Rx         0217  8  00 00 00 00 00 00 00 00 
  1443)       688.3  Rx         0415  8  00 00 C4 FB 0F FE 0F FE 
  1444)       688.5  Rx         0178  8  00 00 02 00 0E 42 CA 1D 
  1445)       688.8  Rx         0085  8  7C FB 00 00 ED 80 7D 16 
  1446)       689.0  Rx         03CC  8  80 00 00 00 00 00 00 00 
  1447)       689.2  Rx         04B0  8  D7 00 80 00 C0 00 08 F2 
  1448)       690.1  Rx         0200  8  00 00 7F F3 7F F3 00 00 
  1449)       690.3  Rx         0202  8  04 F0 60 00 60 00 00 00 
  1450)       690.6  Rx         0204  8  F0 00 7D C0 00 F0 00 00 
  1451)       692.3  Rx         0230  8  00 00 02 FD 6D 36 F4 00 
  1452)       693.0  Rx         0261  8  00 00 10 00 00 00 00 00 
  1453)       693.4  Rx         0091  8  7E F5 7E ED BA 61 F0 00 
  1454)       693.7  Rx         0092  8  6F A5 6F A0 73 7F A0 61 
  1455)       693.9  Rx         0334  8  24 72 72 00 00 FF 40 00 
  1456)       694.1  Rx         03A8  8  01 00 26 F5 00 00 00 00 
  1457)       694.4  Rx         023A  8  81 C0 DF 0F 88 03 E4 00 
  1458)       694.7  Rx         0186  8  14 04 01 F9 01 F7 00 00 
  1459)       695.0  Rx         0187  8  E2 14 08 28 00 10 03 00 
  1460)       695.2  Rx         018A  8  00 20 10 01 31 00 00 00 
  1461)       695.4  Rx         0167  8  00 80 00 08 00 19 DC 00 
  1462)       695.7  Rx         0204  8  F4 00 7D C0 00 EF 00 00 
  1463)       695.9  Rx         0088  8  FF FC 82 00 00 00 00 00 
  1464)       696.2  Rx         0217  8  00 00 00 00 00 00 00 00 
  1465)       696.5  Rx         042F  8  CD 04 00 01 90 00 00 00 
  1466)       698.6  Rx         0082  8  7F 08 14 00 79 80 00 00 
  1467)       698.9  Rx         0085  8  7C FB 00 00 EC 90 7D 16 
  1468)       700.2  Rx         0242  8  00 CE 1E 45 C2 00 00 01 
  1469)       703.1  Rx         0078  8  05 0B 80 10 00 00 00 00 
  1470)       703.4  Rx         0091  8  7E F4 7E EC B7 66 F0 00 
  1471)       703.7  Rx         0092  8  6F A4 6F A0 73 92 89 66 
  1472)       704.8  Rx         0047  8  20 00 00 00 00 00 00 00 
  1473)       705.1  Rx         0165  8  10 C0 00 00 00 00 00 00 
  1474)       705.3  Rx         0167  8  00 80 00 08 00 19 DC 00 
  1475)       705.7  Rx         0049  8  00 00 00 00 00 00 00 00 
  1476)       705.9  Rx         0076  8  3E 65 C1 80 0F FF 00 00 
  1477)       706.1  Rx         0077  8  00 00 08 00 7F F7 F1 FF 
  1478)       706.4  Rx         007D  8  00 00 F2 D0 00 20 07 FF 
  1479)       706.6  Rx         0088  8  FF FC 82 00 00 00 00 00 
  1480)       706.9  Rx         0213  8  FF FF 08 0C 80 01 FF 41 
  1481)       707.1  Rx         0214  8  00 00 00 00 00 00 F2 D0 
  1482)       707.4  Rx         0216  8  E3 CF E2 CE 82 00 00 00 
  1483)       707.6  Rx         0217  8  00 00 00 00 00 00 00 00 
  1484)       707.8  Rx         0415  8  00 00 C8 FA 0F FE 0F FE 
