;$FILEVERSION=1.1
;$STARTTIME=43535.5813015741
;
;   C:\Users\damor\Desktop\NGU077.trc
;
;   Start time: 2019-03-11 13:57:04.456.0
;   Generated by PCAN-View v4.2.1.533
;
;   Message Number
;   |         Time Offset (ms)
;   |         |        Type
;   |         |        |        ID (hex)
;   |         |        |        |     Data Length
;   |         |        |        |     |   Data Bytes (hex) ...
;   |         |        |        |     |   |
;---+--   ----+----  --+--  ----+---  +  -+ -- -- -- -- -- -- --
     1)         4.9  Rx         0050  8  80 00 F3 2D 00 00 00 00 
     2)         5.2  Rx         0027  8  80 00 00 00 00 00 00 10 
     3)         5.4  Rx         002A  8  80 00 00 00 00 00 00 00 
     4)         5.7  Rx         0033  8  80 00 00 00 00 00 00 00 
     5)         5.9  Rx         003A  8  80 00 00 00 00 00 00 00 
     6)         9.5  Rx         0035  8  BB 23 7C 43 7F EE 10 00 
     7)         9.8  Rx         0025  8  80 00 00 00 00 00 00 00 
     8)        10.0  Rx         0030  8  DE 23 7C 43 7F EE 10 00 
     9)        10.2  Rx         0040  8  81 6D 00 00 01 08 43 8B 
    10)        14.9  Rx         0027  8  00 00 00 00 00 00 00 00 
    11)        15.1  Rx         002A  8  00 00 00 00 00 00 00 00 
    12)        15.4  Rx         0033  8  00 00 00 00 00 00 00 00 
    13)        15.7  Rx         003A  8  00 00 00 00 00 00 00 00 
    14)        19.4  Rx         0035  8  BB 23 7C 43 7F E8 10 00 
    15)        19.7  Rx         0025  8  00 00 00 00 00 00 00 00 
    16)        20.0  Rx         0030  8  DE 23 7C 43 7F E8 10 00 
    17)        24.7  Rx         0027  8  80 00 00 00 00 00 00 10 
    18)        25.0  Rx         002A  8  80 00 00 00 00 00 00 00 
    19)        25.2  Rx         0033  8  80 00 00 00 00 00 00 00 
    20)        25.5  Rx         003A  8  80 00 00 00 00 00 00 00 
    21)        29.8  Rx         0035  8  35 24 7C 43 7F EE D0 00 
    22)        30.1  Rx         0025  8  80 00 00 00 00 00 00 00 
    23)        30.3  Rx         0030  8  50 24 7C 43 7F EE D0 00 
    24)        30.5  Rx         0040  8  CD 8D 00 00 01 4C 44 72 
    25)        34.7  Rx         0130  8  BB 38 20 69 D7 03 95 00 
    26)        35.0  Rx         0027  8  00 00 00 00 00 00 00 00 
    27)        35.2  Rx         002A  8  00 00 00 00 00 00 00 00 
    28)        35.5  Rx         0033  8  00 00 00 00 00 00 00 00 
    29)        35.7  Rx         003A  8  00 00 00 00 00 00 00 00 
    30)        39.5  Rx         0035  8  35 24 7C 43 7F E8 10 00 
    31)        39.8  Rx         0025  8  00 00 00 00 00 00 00 00 
    32)        40.0  Rx         0030  8  50 24 7C 43 7F E8 10 00 
    33)        45.0  Rx         0050  8  80 00 BD 6D 00 00 00 00 
    34)        45.3  Rx         0027  8  80 00 00 00 00 00 00 10 
    35)        45.5  Rx         002A  8  80 00 00 00 00 00 00 00 
    36)        45.8  Rx         0033  8  80 00 00 00 00 00 00 00 
    37)        46.0  Rx         003A  8  80 00 00 00 00 00 00 00 
    38)        46.2  Rx         057F  4  11 F9 C0 00 
    39)        49.6  Rx         0035  8  68 25 7C 43 7F EE 10 00 
    40)        49.8  Rx         0025  8  80 00 00 00 00 00 00 00 
    41)        50.0  Rx         0030  8  0D 25 7C 43 7F EE 10 00 
    42)        50.3  Rx         0040  8  07 AD 00 00 01 08 45 3E 
    43)        54.9  Rx         0027  8  00 00 00 00 00 00 00 00 
    44)        55.1  Rx         002A  8  00 00 00 00 00 00 00 00 
    45)        55.4  Rx         0033  8  00 00 00 00 00 00 00 00 
    46)        55.6  Rx         003A  8  00 00 00 00 00 00 00 00 
    47)        59.6  Rx         0035  8  68 25 7C 43 7F E8 10 00 
    48)        59.9  Rx         0025  8  00 00 00 00 00 00 00 00 
    49)        60.1  Rx         0030  8  0D 25 7C 43 7F E8 10 00 
    50)        65.1  Rx         0027  8  80 00 00 00 00 00 00 10 
    51)        65.3  Rx         002A  8  80 00 00 00 00 00 00 00 
    52)        65.5  Rx         0033  8  80 00 00 00 00 00 00 00 
    53)        65.8  Rx         003A  8  80 00 00 00 00 00 00 00 
    54)        69.2  Rx         0140  3  15 45 40 
    55)        69.5  Rx         0135  8  21 82 00 00 00 00 00 00 
    56)        69.7  Rx         0025  8  80 00 00 00 00 00 00 00 
    57)        69.9  Rx         0030  8  EA 26 7C 43 7F EE 10 00 
    58)        70.2  Rx         0035  8  8F 26 7C 43 7F EE 10 00 
    59)        70.4  Rx         0040  8  44 CD 00 00 01 08 46 EA 
    60)        73.7  Rx         0145  3  15 45 40 
    61)        74.0  Rx         0138  8  21 1F 00 00 00 00 00 00 
    62)        74.8  Rx         0027  8  00 00 00 00 00 00 00 00 
    63)        75.1  Rx         002A  8  00 00 00 00 00 00 00 00 
    64)        75.3  Rx         0033  8  00 00 00 00 00 00 00 00 
    65)        75.6  Rx         003A  8  00 00 00 00 00 00 00 00 
    66)        79.4  Rx         0035  8  8F 26 7C 43 7F E8 D0 00 
    67)        79.7  Rx         0025  8  00 00 00 00 00 00 00 00 
    68)        79.9  Rx         0030  8  EA 26 7C 43 7F E8 D0 00 
    69)        84.8  Rx         0050  8  80 00 6F AD 00 00 00 00 
    70)        85.1  Rx         0027  8  80 00 00 00 00 00 00 10 
    71)        85.3  Rx         002A  8  80 00 00 00 00 00 00 00 
    72)        85.6  Rx         0033  8  80 00 00 00 00 00 00 00 
    73)        85.8  Rx         003A  8  80 00 00 00 00 00 00 00 
    74)        89.5  Rx         0035  8  D2 27 7C 43 7F EE 10 00 
    75)        89.7  Rx         0025  8  80 00 00 00 00 00 00 00 
    76)        90.0  Rx         0030  8  B7 27 7C 43 7F EE 10 00 
    77)        90.2  Rx         0040  8  8E ED 00 00 01 4C 47 A6 
    78)        94.7  Rx         057F  4  11 F9 C0 00 
    79)        94.9  Rx         0027  8  00 00 00 00 00 00 00 00 
    80)        95.2  Rx         002A  8  00 00 00 00 00 00 00 00 
    81)        95.4  Rx         0033  8  00 00 00 00 00 00 00 00 
    82)        95.7  Rx         003A  8  00 00 00 00 00 00 00 00 
    83)        95.9  Rx         0250  8  1A 00 00 00 00 00 00 00 
    84)        99.5  Rx         0035  8  D2 27 7C 43 7F E8 10 00 
    85)        99.8  Rx         0025  8  00 00 00 00 00 00 00 00 
    86)       100.0  Rx         0030  8  B7 27 7C 43 7F E8 10 00 
    87)       104.8  Rx         0027  8  80 00 00 00 00 00 00 10 
    88)       105.1  Rx         002A  8  80 00 00 00 00 00 00 00 
    89)       105.3  Rx         0033  8  80 00 00 00 00 00 00 00 
    90)       105.6  Rx         003A  8  80 00 00 00 00 00 00 00 
    91)       109.5  Rx         0035  8  8E 28 7C 43 7F EE 10 00 
    92)       109.7  Rx         0025  8  80 00 00 00 00 00 00 00 
    93)       109.9  Rx         0030  8  EB 28 7C 43 7F EE 10 00 
    94)       110.2  Rx         0040  8  A7 1D 00 00 01 08 48 05 
    95)       114.8  Rx         0027  8  00 00 00 00 00 00 00 00 
    96)       115.1  Rx         002A  8  00 00 00 00 00 00 00 00 
    97)       115.4  Rx         0033  8  00 00 00 00 00 00 00 00 
    98)       115.6  Rx         003A  8  00 00 00 00 00 00 00 00 
    99)       119.6  Rx         0035  8  8E 28 7C 43 7F E8 10 00 
   100)       119.8  Rx         0025  8  00 00 00 00 00 00 00 00 
   101)       120.1  Rx         0030  8  EB 28 7C 43 7F E8 10 00 
   102)       125.0  Rx         0050  8  80 00 21 ED 00 00 00 00 
   103)       125.2  Rx         0027  8  80 00 00 00 00 00 00 10 
   104)       125.4  Rx         002A  8  80 00 00 00 00 00 00 00 
   105)       125.7  Rx         0033  8  80 00 00 00 00 00 00 00 
   106)       125.9  Rx         003A  8  80 00 00 00 00 00 00 00 
   107)       129.6  Rx         0035  8  D3 29 7C 43 7F EE D0 00 
   108)       129.9  Rx         0025  8  80 00 00 00 00 00 00 00 
   109)       130.1  Rx         0030  8  B6 29 7C 43 7F EE D0 00 
   110)       130.3  Rx         0040  8  6D 3D 00 00 01 4C 49 49 
   111)       134.9  Rx         0027  8  00 00 00 00 00 00 00 00 
   112)       135.1  Rx         002A  8  00 00 00 00 00 00 00 00 
   113)       135.4  Rx         0033  8  00 00 00 00 00 00 00 00 
   114)       135.6  Rx         003A  8  00 00 00 00 00 00 00 00 
   115)       139.4  Rx         0035  8  D3 29 7C 43 7F E8 10 00 
   116)       139.7  Rx         0025  8  00 00 00 00 00 00 00 00 
   117)       139.9  Rx         0030  8  B6 29 7C 43 7F E8 10 00 
   118)       144.9  Rx         057F  4  11 F9 C0 00 
   119)       145.1  Rx         0027  8  80 00 00 00 00 00 00 10 
   120)       145.4  Rx         002A  8  80 00 00 00 00 00 00 00 
   121)       145.7  Rx         0033  8  80 00 00 00 00 00 00 00 
   122)       145.9  Rx         003A  8  80 00 00 00 00 00 00 00 
   123)       149.6  Rx         0035  8  34 2A 7C 43 7F EE 10 00 
   124)       149.8  Rx         0030  8  51 2A 7C 43 7F EE 10 00 
   125)       150.1  Rx         0025  8  80 00 00 00 00 00 00 00 
   126)       150.3  Rx         0040  8  2E 5D 00 00 01 08 4A 9D 
   127)       154.8  Rx         0130  8  BB 38 20 69 D7 07 95 00 
   128)       155.0  Rx         0027  8  00 00 00 00 00 00 00 00 
   129)       155.3  Rx         002A  8  00 00 00 00 00 00 00 00 
   130)       155.6  Rx         0033  8  00 00 00 00 00 00 00 00 
   131)       155.8  Rx         003A  8  00 00 00 00 00 00 00 00 
   132)       159.4  Rx         0035  8  34 2A 7C 43 7F E8 10 00 
   133)       159.6  Rx         0025  8  00 00 00 00 00 00 00 00 
   134)       159.9  Rx         0030  8  51 2A 7C 43 7F E8 10 00 
   135)       164.9  Rx         0050  8  80 00 6E 3D 00 00 00 00 
   136)       165.1  Rx         0027  8  80 00 00 00 00 00 00 10 
   137)       165.4  Rx         002A  8  80 00 00 00 00 00 00 00 
   138)       165.6  Rx         0033  8  80 00 00 00 00 00 00 00 
   139)       165.9  Rx         003A  8  80 00 00 00 00 00 00 00 
   140)       169.4  Rx         0035  8  69 2B 7C 43 7F EE 10 00 
   141)       169.7  Rx         0025  8  80 00 00 00 00 00 00 00 
   142)       169.9  Rx         0030  8  0C 2B 7C 43 7F EE 10 00 
   143)       170.1  Rx         0040  8  E4 7D 00 00 01 08 4B D1 
   144)       174.7  Rx         0027  8  00 00 00 00 00 00 00 00 
   145)       175.0  Rx         002A  8  00 00 00 00 00 00 00 00 
   146)       175.2  Rx         0033  8  00 00 00 00 00 00 00 00 
   147)       175.4  Rx         003A  8  00 00 00 00 00 00 00 00 
   148)       179.3  Rx         0035  8  69 2B 7C 43 7F E8 D0 00 
   149)       179.5  Rx         0025  8  00 00 00 00 00 00 00 00 
   150)       179.7  Rx         0030  8  0C 2B 7C 43 7F E8 D0 00 
   151)       185.1  Rx         0027  8  80 00 00 00 00 00 00 10 
   152)       185.4  Rx         002A  8  80 00 00 00 00 00 00 00 
   153)       185.6  Rx         0033  8  80 00 00 00 00 00 00 00 
   154)       185.8  Rx         003A  8  80 00 00 00 00 00 00 00 
   155)       189.2  Rx         0140  3  15 45 40 
   156)       189.4  Rx         0135  8  22 56 00 00 00 00 00 00 
   157)       189.7  Rx         0025  8  80 00 00 00 00 00 00 00 
   158)       189.9  Rx         0030  8  82 2C 7C 43 7F EE 10 00 
   159)       190.2  Rx         0035  8  E7 2C 7C 43 7F EE 10 00 
   160)       190.4  Rx         0040  8  A8 9D 00 00 01 4C 4C 28 
   161)       193.7  Rx         0145  3  15 45 40 
   162)       194.0  Rx         0138  8  22 CB 00 00 00 00 00 00 
   163)       195.3  Rx         057F  4  11 F9 C0 00 
   164)       195.5  Rx         0027  8  00 00 00 00 00 00 00 00 
   165)       195.8  Rx         002A  8  00 00 00 00 00 00 00 00 
   166)       196.0  Rx         0033  8  00 00 00 00 00 00 00 00 
   167)       196.3  Rx         003A  8  00 00 00 00 00 00 00 00 
   168)       199.7  Rx         0035  8  E7 2C 7C 43 7F E8 10 00 
   169)       199.9  Rx         0025  8  00 00 00 00 00 00 00 00 
   170)       200.2  Rx         0030  8  82 2C 7C 43 7F E8 10 00 
   171)       205.0  Rx         0050  8  80 00 20 7D 00 00 00 00 
   172)       205.2  Rx         0027  8  80 00 00 00 00 00 00 10 
   173)       205.5  Rx         002A  8  80 00 00 00 00 00 00 00 
   174)       205.7  Rx         0033  8  80 00 00 00 00 00 00 00 
   175)       206.0  Rx         003A  8  80 00 00 00 00 00 00 00 
   176)       209.5  Rx         0035  8  BA 2D 7C 43 7F EE 10 00 
   177)       209.7  Rx         0025  8  80 00 00 00 00 00 00 00 
   178)       210.0  Rx         0030  8  DF 2D 7C 43 7F EE 10 00 
   179)       210.2  Rx         0040  8  62 BD 00 00 01 08 4D 64 
   180)       214.7  Rx         0027  8  00 00 00 00 00 00 00 00 
   181)       215.0  Rx         002A  8  00 00 00 00 00 00 00 00 
   182)       215.2  Rx         0033  8  00 00 00 00 00 00 00 00 
   183)       215.5  Rx         003A  8  00 00 00 00 00 00 00 00 
   184)       219.4  Rx         0035  8  BA 2D 7C 43 7F E8 10 00 
   185)       219.6  Rx         0025  8  00 00 00 00 00 00 00 00 
   186)       219.9  Rx         0030  8  DF 2D 7C 43 7F E8 10 00 
   187)       224.9  Rx         0027  8  80 00 00 00 00 00 00 10 
   188)       225.1  Rx         002A  8  80 00 00 00 00 00 00 00 
   189)       225.4  Rx         0033  8  80 00 00 00 00 00 00 00 
   190)       225.7  Rx         003A  8  80 00 00 00 00 00 00 00 
   191)       229.6  Rx         0035  8  5D 2E 7C 43 7F EE D0 00 
   192)       229.9  Rx         0025  8  80 00 00 00 00 00 00 00 
   193)       230.1  Rx         0030  8  38 2E 7C 43 7F EE D0 00 
   194)       230.3  Rx         0040  8  21 DD 00 00 01 4C 4E B0 
   195)       234.9  Rx         0027  8  00 00 00 00 00 00 00 00 
   196)       235.2  Rx         002A  8  00 00 00 00 00 00 00 00 
   197)       235.4  Rx         0033  8  00 00 00 00 00 00 00 00 
   198)       235.7  Rx         003A  8  00 00 00 00 00 00 00 00 
   199)       239.4  Rx         0035  8  5D 2E 7C 43 7F E8 10 00 
   200)       239.7  Rx         0025  8  00 00 00 00 00 00 00 00 
   201)       239.9  Rx         0030  8  38 2E 7C 43 7F E8 10 00 
   202)       245.1  Rx         0050  8  80 00 F2 BD 00 00 00 00 
   203)       245.3  Rx         0027  8  80 00 00 00 00 00 00 10 
   204)       245.6  Rx         002A  8  80 00 00 00 00 00 00 00 
   205)       245.8  Rx         0033  8  80 00 00 00 00 00 00 00 
   206)       246.1  Rx         003A  8  80 00 00 00 00 00 00 00 
   207)       246.3  Rx         057F  4  11 F9 C0 00 
   208)       249.3  Rx         0035  8  5C 20 7C 43 7F EE 10 00 
   209)       249.5  Rx         0025  8  80 00 00 00 00 00 00 00 
   210)       249.8  Rx         0030  8  39 20 7C 43 7F EE 10 00 
   211)       250.0  Rx         0040  8  C2 0D 00 00 01 08 40 5F 
   212)       255.0  Rx         0027  8  00 00 00 00 00 00 00 00 
   213)       255.3  Rx         002A  8  00 00 00 00 00 00 00 00 
   214)       255.5  Rx         0033  8  00 00 00 00 00 00 00 00 
   215)       255.8  Rx         003A  8  00 00 00 00 00 00 00 00 
   216)       259.2  Rx         0035  8  5C 20 7C 43 7F E8 10 00 
   217)       259.5  Rx         0025  8  00 00 00 00 00 00 00 00 
   218)       259.7  Rx         0030  8  39 20 7C 43 7F E8 10 00 
   219)       264.9  Rx         0027  8  80 00 00 00 00 00 00 10 
   220)       265.2  Rx         002A  8  80 00 00 00 00 00 00 00 
   221)       265.4  Rx         0033  8  80 00 00 00 00 00 00 00 
   222)       265.7  Rx         003A  8  80 00 00 00 00 00 00 00 
   223)       269.6  Rx         0035  8  01 21 7C 43 7F EE 10 00 
   224)       269.9  Rx         0025  8  80 00 00 00 00 00 00 00 
   225)       270.1  Rx         0030  8  64 21 7C 43 7F EE 10 00 
   226)       270.3  Rx         0040  8  08 2D 00 00 01 08 41 13 
   227)       273.7  Rx         052A  8  2A 40 24 08 00 00 00 00 
   228)       275.1  Rx         0130  8  9B 38 20 69 D7 03 95 00 
   229)       275.3  Rx         0027  8  00 00 00 00 00 00 00 00 
   230)       275.6  Rx         002A  8  00 00 00 00 00 00 00 00 
   231)       275.8  Rx         0033  8  00 00 00 00 00 00 00 00 
   232)       276.0  Rx         003A  8  00 00 00 00 00 00 00 00 
   233)       279.3  Rx         0035  8  01 21 7C 43 7F E8 D0 00 
   234)       279.5  Rx         0025  8  00 00 00 00 00 00 00 00 
   235)       279.8  Rx         0030  8  64 21 7C 43 7F E8 D0 00 
   236)       285.0  Rx         0050  8  80 00 D4 0D 00 00 00 00 
   237)       285.3  Rx         0027  8  80 00 00 00 00 00 00 10 
   238)       285.5  Rx         002A  8  80 00 00 00 00 00 00 00 
   239)       285.8  Rx         0033  8  80 00 00 00 00 00 00 00 
   240)       286.0  Rx         003A  8  80 00 00 00 00 00 00 00 
   241)       289.5  Rx         0035  8  E6 22 7C 43 7F EE 10 00 
   242)       289.8  Rx         0025  8  80 00 00 00 00 00 00 00 
   243)       290.0  Rx         0030  8  83 22 7C 43 7F EE 10 00 
   244)       290.2  Rx         0040  8  4B 4D 00 00 01 4C 42 C7 
   245)       294.7  Rx         057F  4  11 F9 C0 00 
   246)       295.0  Rx         0027  8  00 00 00 00 00 00 00 00 
   247)       295.2  Rx         002A  8  00 00 00 00 00 00 00 00 
   248)       295.5  Rx         0033  8  00 00 00 00 00 00 00 00 
   249)       295.7  Rx         003A  8  00 00 00 00 00 00 00 00 
   250)       296.0  Rx         0250  8  1A 00 00 00 00 00 00 00 
   251)       299.5  Rx         0035  8  E6 22 7C 43 7F E8 10 00 
   252)       299.7  Rx         0025  8  00 00 00 00 00 00 00 00 
   253)       300.0  Rx         0030  8  83 22 7C 43 7F E8 10 00 
   254)       304.9  Rx         0027  8  80 00 00 00 00 00 00 10 
   255)       305.1  Rx         002A  8  80 00 00 00 00 00 00 00 
   256)       305.4  Rx         0033  8  80 00 00 00 00 00 00 00 
   257)       305.6  Rx         003A  8  80 00 00 00 00 00 00 00 
   258)       309.2  Rx         0140  3  15 45 40 
   259)       309.4  Rx         0030  8  DE 23 7C 43 7F EE 10 00 
   260)       309.7  Rx         0025  8  80 00 00 00 00 00 00 00 
   261)       309.9  Rx         0035  8  BB 23 7C 43 7F EE 10 00 
   262)       310.2  Rx         0040  8  81 6D 00 00 01 08 43 8B 
   263)       310.4  Rx         0135  8  23 1A 00 00 00 00 00 00 
   264)       313.7  Rx         0145  3  15 45 40 
   265)       314.0  Rx         0138  8  23 87 00 00 00 00 00 00 
   266)       314.9  Rx         0027  8  00 00 00 00 00 00 00 00 
   267)       315.1  Rx         002A  8  00 00 00 00 00 00 00 00 
   268)       315.4  Rx         0033  8  00 00 00 00 00 00 00 00 
   269)       315.6  Rx         003A  8  00 00 00 00 00 00 00 00 
   270)       319.6  Rx         0035  8  BB 23 7C 43 7F E8 10 00 
   271)       319.9  Rx         0025  8  00 00 00 00 00 00 00 00 
   272)       320.1  Rx         0030  8  DE 23 7C 43 7F E8 10 00 
   273)       325.0  Rx         0050  8  80 00 9A 4D 00 00 00 00 
   274)       325.2  Rx         0027  8  80 00 00 00 00 00 00 10 
   275)       325.5  Rx         002A  8  80 00 00 00 00 00 00 00 
   276)       325.7  Rx         0033  8  80 00 00 00 00 00 00 00 
   277)       326.0  Rx         003A  8  80 00 00 00 00 00 00 00 
   278)       329.3  Rx         0035  8  35 24 7C 43 7F EE D0 00 
   279)       329.6  Rx         0025  8  80 00 00 00 00 00 00 00 
   280)       329.8  Rx         0030  8  50 24 7C 43 7F EE D0 00 
   281)       330.1  Rx         0040  8  CD 8D 00 00 01 4C 44 72 
   282)       335.0  Rx         0027  8  00 00 00 00 00 00 00 00 
   283)       335.2  Rx         002A  8  00 00 00 00 00 00 00 00 
   284)       335.5  Rx         0033  8  00 00 00 00 00 00 00 00 
   285)       335.7  Rx         003A  8  00 00 00 00 00 00 00 00 
   286)       339.3  Rx         0035  8  35 24 7C 43 7F E8 10 00 
   287)       339.5  Rx         0025  8  00 00 00 00 00 00 00 00 
   288)       339.7  Rx         0030  8  50 24 7C 43 7F E8 10 00 
   289)       344.6  Rx         057F  4  11 F9 C0 00 
   290)       344.9  Rx         0027  8  80 00 00 00 00 00 00 10 
   291)       345.1  Rx         002A  8  80 00 00 00 00 00 00 00 
   292)       345.4  Rx         0033  8  80 00 00 00 00 00 00 00 
   293)       345.6  Rx         003A  8  80 00 00 00 00 00 00 00 
   294)       349.6  Rx         0035  8  68 25 7C 43 7F EE 10 00 
   295)       349.8  Rx         0025  8  80 00 00 00 00 00 00 00 
   296)       350.1  Rx         0030  8  0D 25 7C 43 7F EE 10 00 
   297)       350.3  Rx         0040  8  07 AD 00 00 01 08 45 3E 
   298)       354.9  Rx         0027  8  00 00 00 00 00 00 00 00 
   299)       355.1  Rx         002A  8  00 00 00 00 00 00 00 00 
   300)       355.4  Rx         0033  8  00 00 00 00 00 00 00 00 
   301)       355.6  Rx         003A  8  00 00 00 00 00 00 00 00 
   302)       359.5  Rx         0035  8  68 25 7C 43 7F E8 10 00 
   303)       359.8  Rx         0025  8  00 00 00 00 00 00 00 00 
   304)       360.1  Rx         0030  8  0D 25 7C 43 7F E8 10 00 
   305)       365.2  Rx         0050  8  80 00 48 8D 00 00 00 00 
   306)       365.4  Rx         0027  8  80 00 00 00 00 00 00 10 
   307)       365.7  Rx         002A  8  80 00 00 00 00 00 00 00 
   308)       365.9  Rx         0033  8  80 00 00 00 00 00 00 00 
   309)       366.2  Rx         003A  8  80 00 00 00 00 00 00 00 
   310)       369.6  Rx         0035  8  8F 26 7C 43 7F EE 10 00 
   311)       369.8  Rx         0025  8  80 00 00 00 00 00 00 00 
   312)       370.1  Rx         0030  8  EA 26 7C 43 7F EE 10 00 
   313)       370.3  Rx         0040  8  44 CD 00 00 01 08 46 EA 
   314)       374.8  Rx         0027  8  00 00 00 00 00 00 00 00 
   315)       375.1  Rx         002A  8  00 00 00 00 00 00 00 00 
   316)       375.3  Rx         0033  8  00 00 00 00 00 00 00 00 
   317)       375.6  Rx         003A  8  00 00 00 00 00 00 00 00 
   318)       379.2  Rx         0035  8  8F 26 7C 43 7F E8 D0 00 
   319)       379.5  Rx         0025  8  00 00 00 00 00 00 00 00 
   320)       379.7  Rx         0030  8  EA 26 7C 43 7F E8 D0 00 
   321)       384.8  Rx         0027  8  80 00 00 00 00 00 00 10 
   322)       385.1  Rx         002A  8  80 00 00 00 00 00 00 00 
   323)       385.3  Rx         0033  8  80 00 00 00 00 00 00 00 
   324)       385.6  Rx         003A  8  80 00 00 00 00 00 00 00 
   325)       389.6  Rx         0035  8  D2 27 7C 43 7F EE 10 00 
   326)       389.9  Rx         0025  8  80 00 00 00 00 00 00 00 
   327)       390.1  Rx         0030  8  B7 27 7C 43 7F EE 10 00 
   328)       390.3  Rx         0040  8  8E ED 00 00 01 4C 47 A6 
   329)       394.8  Rx         0130  8  BB 38 20 69 D7 03 95 00 
   330)       395.1  Rx         0027  8  00 00 00 00 00 00 00 00 
   331)       395.3  Rx         002A  8  00 00 00 00 00 00 00 00 
   332)       395.5  Rx         0033  8  00 00 00 00 00 00 00 00 
   333)       395.8  Rx         003A  8  00 00 00 00 00 00 00 00 
   334)       396.0  Rx         057F  4  11 F9 C0 00 
   335)       399.5  Rx         0035  8  D2 27 7C 43 7F E8 10 00 
   336)       399.7  Rx         0025  8  00 00 00 00 00 00 00 00 
   337)       400.0  Rx         0030  8  B7 27 7C 43 7F E8 10 00 
   338)       404.9  Rx         0050  8  80 00 06 CD 00 00 00 00 
   339)       405.2  Rx         0027  8  80 00 00 00 00 00 00 10 
   340)       405.4  Rx         002A  8  80 00 00 00 00 00 00 00 
   341)       405.7  Rx         0033  8  80 00 00 00 00 00 00 00 
   342)       406.0  Rx         003A  8  80 00 00 00 00 00 00 00 
   343)       409.4  Rx         0035  8  8E 28 7C 43 7F EE 10 00 
   344)       409.7  Rx         0025  8  80 00 00 00 00 00 00 00 
   345)       409.9  Rx         0030  8  EB 28 7C 43 7F EE 10 00 
   346)       410.1  Rx         0040  8  A7 1D 00 00 01 08 48 05 
   347)       414.7  Rx         0027  8  00 00 00 00 00 00 00 00 
   348)       415.0  Rx         002A  8  00 00 00 00 00 00 00 00 
   349)       415.2  Rx         0033  8  00 00 00 00 00 00 00 00 
   350)       415.5  Rx         003A  8  00 00 00 00 00 00 00 00 
   351)       419.4  Rx         0035  8  8E 28 7C 43 7F E8 10 00 
   352)       419.6  Rx         0025  8  00 00 00 00 00 00 00 00 
   353)       419.9  Rx         0030  8  EB 28 7C 43 7F E8 10 00 
   354)       425.0  Rx         0027  8  80 00 00 00 00 00 00 10 
   355)       425.2  Rx         002A  8  80 00 00 00 00 00 00 00 
   356)       425.5  Rx         0033  8  80 00 00 00 00 00 00 00 
   357)       425.7  Rx         003A  8  80 00 00 00 00 00 00 00 
   358)       429.3  Rx         0035  8  D3 29 7C 43 7F EE D0 00 
   359)       429.5  Rx         0030  8  B6 29 7C 43 7F EE D0 00 
   360)       429.8  Rx         0025  8  80 00 00 00 00 00 00 00 
   361)       430.0  Rx         0040  8  6D 3D 00 00 01 4C 49 49 
   362)       430.2  Rx         0135  8  24 E3 00 00 00 00 00 00 
   363)       430.4  Rx         0140  3  15 45 40 
   364)       433.7  Rx         0145  3  15 45 40 
   365)       434.0  Rx         0138  8  24 7E 00 00 00 00 00 00 
   366)       435.1  Rx         0027  8  00 00 00 00 00 00 00 00 
   367)       435.4  Rx         002A  8  00 00 00 00 00 00 00 00 
   368)       435.7  Rx         0033  8  00 00 00 00 00 00 00 00 
   369)       435.9  Rx         003A  8  00 00 00 00 00 00 00 00 
   370)       439.6  Rx         0035  8  D3 29 7C 43 7F E8 10 00 
   371)       439.8  Rx         0025  8  00 00 00 00 00 00 00 00 
   372)       440.1  Rx         0030  8  B6 29 7C 43 7F E8 10 00 
   373)       445.0  Rx         0050  8  80 00 49 1D 00 00 00 00 
   374)       445.2  Rx         0027  8  80 00 00 00 00 00 00 10 
   375)       445.5  Rx         002A  8  80 00 00 00 00 00 00 00 
   376)       445.7  Rx         0033  8  80 00 00 00 00 00 00 00 
   377)       446.0  Rx         003A  8  80 00 00 00 00 00 00 00 
   378)       446.2  Rx         057F  4  11 F9 C0 00 
   379)       449.6  Rx         0035  8  34 2A 7C 43 7F EE 10 00 
   380)       449.8  Rx         0025  8  80 00 00 00 00 00 00 00 
   381)       450.0  Rx         0030  8  51 2A 7C 43 7F EE 10 00 
   382)       450.3  Rx         0040  8  2E 5D 00 00 01 08 4A 9D 
   383)       454.6  Rx         0027  8  00 00 00 00 00 00 00 00 
   384)       454.9  Rx         002A  8  00 00 00 00 00 00 00 00 
   385)       455.1  Rx         0033  8  00 00 00 00 00 00 00 00 
   386)       455.4  Rx         003A  8  00 00 00 00 00 00 00 00 
   387)       459.3  Rx         0035  8  34 2A 7C 43 7F E8 10 00 
   388)       459.5  Rx         0025  8  00 00 00 00 00 00 00 00 
   389)       459.8  Rx         0030  8  51 2A 7C 43 7F E8 10 00 
   390)       465.1  Rx         0027  8  80 00 00 00 00 00 00 10 
   391)       465.3  Rx         002A  8  80 00 00 00 00 00 00 00 
   392)       465.6  Rx         0033  8  80 00 00 00 00 00 00 00 
   393)       465.8  Rx         003A  8  80 00 00 00 00 00 00 00 
   394)       469.4  Rx         0035  8  69 2B 7C 43 7F EE 10 00 
   395)       469.7  Rx         0025  8  80 00 00 00 00 00 00 00 
   396)       469.9  Rx         0030  8  0C 2B 7C 43 7F EE 10 00 
   397)       470.1  Rx         0040  8  E4 7D 00 00 01 08 4B D1 
   398)       475.1  Rx         0027  8  00 00 00 00 00 00 00 00 
   399)       475.3  Rx         002A  8  00 00 00 00 00 00 00 00 
   400)       475.6  Rx         0033  8  00 00 00 00 00 00 00 00 
   401)       475.8  Rx         003A  8  00 00 00 00 00 00 00 00 
   402)       479.3  Rx         0035  8  69 2B 7C 43 7F E8 D0 00 
   403)       479.5  Rx         0025  8  00 00 00 00 00 00 00 00 
   404)       479.8  Rx         0030  8  0C 2B 7C 43 7F E8 D0 00 
   405)       485.0  Rx         0050  8  80 00 07 5D 00 00 00 00 
   406)       485.2  Rx         0027  8  80 00 00 00 00 00 00 10 
   407)       485.5  Rx         002A  8  80 00 00 00 00 00 00 00 
   408)       485.7  Rx         0033  8  80 00 00 00 00 00 00 00 
   409)       486.0  Rx         003A  8  80 00 00 00 00 00 00 00 
   410)       489.5  Rx         0035  8  E7 2C 7C 43 7F EE 10 00 
   411)       489.7  Rx         0025  8  80 00 00 00 00 00 00 00 
   412)       490.0  Rx         0030  8  82 2C 7C 43 7F EE 10 00 
   413)       490.2  Rx         0040  8  A8 9D 00 00 01 4C 4C 28 
   414)       494.7  Rx         057F  4  11 F9 C0 00 
   415)       495.0  Rx         0027  8  00 00 00 00 00 00 00 00 
   416)       495.3  Rx         002A  8  00 00 00 00 00 00 00 00 
   417)       495.5  Rx         0033  8  00 00 00 00 00 00 00 00 
   418)       495.8  Rx         003A  8  00 00 00 00 00 00 00 00 
   419)       496.0  Rx         0250  8  1A 00 00 00 00 00 00 00 
   420)       499.5  Rx         0035  8  E7 2C 7C 43 7F E8 10 00 
   421)       499.7  Rx         0025  8  00 00 00 00 00 00 00 00 
   422)       500.0  Rx         0030  8  82 2C 7C 43 7F E8 10 00 
   423)       504.9  Rx         0027  8  80 00 00 00 00 00 00 10 
   424)       505.1  Rx         002A  8  80 00 00 00 00 00 00 00 
   425)       505.4  Rx         0033  8  80 00 00 00 00 00 00 00 
   426)       505.6  Rx         003A  8  80 00 00 00 00 00 00 00 
   427)       509.3  Rx         0345  8  00 00 00 00 00 00 00 00 
   428)       509.6  Rx         0035  8  BA 2D 7C 43 7F EE 10 00 
   429)       509.9  Rx         0025  8  80 00 00 00 00 00 00 00 
   430)       510.1  Rx         0030  8  DF 2D 7C 43 7F EE 10 00 
   431)       510.3  Rx         0040  8  62 BD 00 00 01 08 4D 64 
   432)       513.8  Rx         034A  8  00 00 00 00 00 00 00 00 
   433)       514.8  Rx         0130  8  9B 38 20 69 D7 03 95 00 
   434)       515.1  Rx         0027  8  00 00 00 00 00 00 00 00 
   435)       515.3  Rx         002A  8  00 00 00 00 00 00 00 00 
   436)       515.6  Rx         0033  8  00 00 00 00 00 00 00 00 
   437)       515.8  Rx         003A  8  00 00 00 00 00 00 00 00 
   438)       519.6  Rx         0035  8  BA 2D 7C 43 7F E8 10 00 
   439)       519.9  Rx         0025  8  00 00 00 00 00 00 00 00 
   440)       520.1  Rx         0030  8  DF 2D 7C 43 7F E8 10 00 
   441)       525.0  Rx         0050  8  80 00 D5 9D 00 00 00 00 
   442)       525.3  Rx         0027  8  80 00 00 00 00 00 00 10 
   443)       525.5  Rx         002A  8  80 00 00 00 00 00 00 00 
   444)       525.8  Rx         0033  8  80 00 00 00 00 00 00 00 
   445)       526.0  Rx         003A  8  80 00 00 00 00 00 00 00 
   446)       529.7  Rx         0035  8  5D 2E 7C 43 7F EE D0 00 
   447)       529.9  Rx         0025  8  80 00 00 00 00 00 00 00 
   448)       530.2  Rx         0030  8  38 2E 7C 43 7F EE D0 00 
   449)       530.4  Rx         0040  8  21 DD 00 00 01 4C 4E B0 
   450)       534.9  Rx         0027  8  00 00 00 00 00 00 00 00 
   451)       535.2  Rx         002A  8  00 00 00 00 00 00 00 00 
   452)       535.4  Rx         0033  8  00 00 00 00 00 00 00 00 
   453)       535.7  Rx         003A  8  00 00 00 00 00 00 00 00 
   454)       539.5  Rx         0035  8  5D 2E 7C 43 7F E8 10 00 
   455)       539.8  Rx         0025  8  00 00 00 00 00 00 00 00 
   456)       540.0  Rx         0030  8  38 2E 7C 43 7F E8 10 00 
   457)       545.0  Rx         057F  4  11 F9 C0 00 
   458)       545.3  Rx         0027  8  80 00 00 00 00 00 00 10 
   459)       545.5  Rx         002A  8  80 00 00 00 00 00 00 00 
   460)       545.8  Rx         0033  8  80 00 00 00 00 00 00 00 
   461)       546.0  Rx         003A  8  80 00 00 00 00 00 00 00 
   462)       549.2  Rx         0140  3  15 45 40 
   463)       549.4  Rx         0135  8  25 AF 00 00 00 00 00 00 
   464)       549.7  Rx         0025  8  80 00 00 00 00 00 00 00 
   465)       550.0  Rx         0030  8  39 20 7C 43 7F EE 10 00 
   466)       550.2  Rx         0035  8  5C 20 7C 43 7F EE 10 00 
   467)       550.4  Rx         0040  8  C2 0D 00 00 01 08 40 5F 
   468)       553.7  Rx         0145  3  15 45 40 
   469)       554.0  Rx         0138  8  25 32 00 00 00 00 00 00 
   470)       554.8  Rx         0027  8  00 00 00 00 00 00 00 00 
   471)       555.1  Rx         002A  8  00 00 00 00 00 00 00 00 
   472)       555.3  Rx         0033  8  00 00 00 00 00 00 00 00 
   473)       555.6  Rx         003A  8  00 00 00 00 00 00 00 00 
   474)       559.6  Rx         0035  8  5C 20 7C 43 7F E8 10 00 
   475)       559.8  Rx         0025  8  00 00 00 00 00 00 00 00 
   476)       560.1  Rx         0030  8  39 20 7C 43 7F E8 10 00 
   477)       564.8  Rx         0050  8  80 00 9B DD 00 00 00 00 
   478)       565.1  Rx         0027  8  80 00 00 00 00 00 00 10 
   479)       565.4  Rx         002A  8  80 00 00 00 00 00 00 00 
   480)       565.6  Rx         0033  8  80 00 00 00 00 00 00 00 
   481)       565.9  Rx         003A  8  80 00 00 00 00 00 00 00 
   482)       569.6  Rx         0035  8  01 21 7C 43 7F EE 10 00 
   483)       569.9  Rx         0025  8  80 00 00 00 00 00 00 00 
   484)       570.1  Rx         0030  8  64 21 7C 43 7F EE 10 00 
   485)       570.4  Rx         0040  8  08 2D 00 00 01 08 41 13 
   486)       575.0  Rx         0027  8  00 00 00 00 00 00 00 00 
   487)       575.3  Rx         002A  8  00 00 00 00 00 00 00 00 
   488)       575.5  Rx         0033  8  00 00 00 00 00 00 00 00 
   489)       575.7  Rx         003A  8  00 00 00 00 00 00 00 00 
   490)       579.2  Rx         0035  8  01 21 7C 43 7F E8 D0 00 
   491)       579.5  Rx         0025  8  00 00 00 00 00 00 00 00 
   492)       579.7  Rx         0030  8  64 21 7C 43 7F E8 D0 00 
   493)       584.9  Rx         0027  8  80 00 00 00 00 00 00 10 
   494)       585.2  Rx         002A  8  80 00 00 00 00 00 00 00 
   495)       585.4  Rx         0033  8  80 00 00 00 00 00 00 00 
   496)       585.7  Rx         003A  8  80 00 00 00 00 00 00 00 
   497)       589.4  Rx         0035  8  E6 22 7C 43 7F EE 10 00 
   498)       589.7  Rx         0025  8  80 00 00 00 00 00 00 00 
   499)       589.9  Rx         0030  8  83 22 7C 43 7F EE 10 00 
   500)       590.1  Rx         0040  8  4B 4D 00 00 01 4C 42 C7 
   501)       594.7  Rx         057F  4  11 F9 C0 00 
   502)       594.9  Rx         0027  8  00 00 00 00 00 00 00 00 
   503)       595.2  Rx         002A  8  00 00 00 00 00 00 00 00 
   504)       595.4  Rx         0033  8  00 00 00 00 00 00 00 00 
   505)       595.7  Rx         003A  8  00 00 00 00 00 00 00 00 
   506)       599.5  Rx         0035  8  E6 22 7C 43 7F E8 10 00 
   507)       599.7  Rx         0025  8  00 00 00 00 00 00 00 00 
   508)       600.0  Rx         0030  8  83 22 7C 43 7F E8 10 00 
   509)       604.9  Rx         0050  8  80 00 F3 2D 00 00 00 00 
   510)       605.1  Rx         0027  8  80 00 00 00 00 00 00 10 
   511)       605.4  Rx         002A  8  80 00 00 00 00 00 00 00 
   512)       605.6  Rx         0033  8  80 00 00 00 00 00 00 00 
   513)       605.9  Rx         003A  8  80 00 00 00 00 00 00 00 
   514)       609.6  Rx         0035  8  BB 23 7C 43 7F EE 10 00 
   515)       609.8  Rx         0025  8  80 00 00 00 00 00 00 00 
   516)       610.1  Rx         0030  8  DE 23 7C 43 7F EE 10 00 
   517)       610.3  Rx         0040  8  81 6D 00 00 01 08 43 8B 
   518)       614.8  Rx         0027  8  00 00 00 00 00 00 00 00 
   519)       615.1  Rx         002A  8  00 00 00 00 00 00 00 00 
   520)       615.3  Rx         0033  8  00 00 00 00 00 00 00 00 
   521)       615.6  Rx         003A  8  00 00 00 00 00 00 00 00 
   522)       619.3  Rx         0035  8  BB 23 7C 43 7F E8 10 00 
   523)       619.5  Rx         0025  8  00 00 00 00 00 00 00 00 
   524)       619.8  Rx         0030  8  DE 23 7C 43 7F E8 10 00 
   525)       624.7  Rx         0027  8  80 00 00 00 00 00 00 10 
   526)       625.0  Rx         002A  8  80 00 00 00 00 00 00 00 
   527)       625.2  Rx         0033  8  80 00 00 00 00 00 00 00 
   528)       625.5  Rx         003A  8  80 00 00 00 00 00 00 00 
   529)       629.7  Rx         0035  8  35 24 7C 43 7F EE D0 00 
   530)       629.9  Rx         0025  8  80 00 00 00 00 00 00 00 
   531)       630.2  Rx         0030  8  50 24 7C 43 7F EE D0 00 
   532)       630.4  Rx         0040  8  CD 8D 00 00 01 4C 44 72 
   533)       634.7  Rx         0130  8  BB 38 20 69 D7 03 95 00 
   534)       635.0  Rx         0027  8  00 00 00 00 00 00 00 00 
   535)       635.2  Rx         002A  8  00 00 00 00 00 00 00 00 
   536)       635.5  Rx         0033  8  00 00 00 00 00 00 00 00 
   537)       635.8  Rx         003A  8  00 00 00 00 00 00 00 00 
   538)       639.4  Rx         0035  8  35 24 7C 43 7F E8 10 00 
   539)       639.7  Rx         0025  8  00 00 00 00 00 00 00 00 
   540)       639.9  Rx         0030  8  50 24 7C 43 7F E8 10 00 
   541)       644.9  Rx         0050  8  80 00 BD 6D 00 00 00 00 
   542)       645.1  Rx         0027  8  00 00 00 00 00 00 00 00 
   543)       645.4  Rx         002A  8  00 00 00 00 00 00 00 00 
   544)       645.7  Rx         0033  8  00 00 00 00 00 00 00 00 
   545)       645.9  Rx         003A  8  00 00 00 00 00 00 00 00 
   546)       646.1  Rx         057F  4  11 F9 C0 00 
   547)       649.4  Rx         0035  8  68 25 7C 43 7F EE 10 00 
   548)       649.7  Rx         0025  8  80 00 00 00 00 00 00 00 
   549)       649.9  Rx         0030  8  0D 25 7C 43 7F EE 10 00 
   550)       650.1  Rx         0040  8  07 AD 00 00 01 08 45 3E 
   551)       654.6  Rx         0027  8  80 00 00 00 00 00 00 10 
   552)       654.9  Rx         002A  8  80 00 00 00 00 00 00 00 
   553)       655.1  Rx         0033  8  80 00 00 00 00 00 00 00 
   554)       655.4  Rx         003A  8  80 00 00 00 00 00 00 00 
   555)       659.6  Rx         0035  8  68 25 7C 43 7F E8 10 00 
   556)       659.8  Rx         0025  8  00 00 00 00 00 00 00 00 
   557)       660.0  Rx         0030  8  0D 25 7C 43 7F E8 10 00 
   558)       664.8  Rx         0027  8  80 00 00 00 00 00 00 10 
   559)       665.1  Rx         002A  8  80 00 00 00 00 00 00 00 
   560)       665.3  Rx         0033  8  80 00 00 00 00 00 00 00 
   561)       665.6  Rx         003A  8  80 00 00 00 00 00 00 00 
   562)       669.2  Rx         0140  3  15 45 40 
   563)       669.4  Rx         0135  8  26 7B 00 00 00 00 00 00 
   564)       669.7  Rx         0025  8  80 00 00 00 00 00 00 00 
   565)       669.9  Rx         0030  8  EA 26 7C 43 7F EE 10 00 
   566)       670.1  Rx         0035  8  8F 26 7C 43 7F EE 10 00 
   567)       670.4  Rx         0040  8  44 CD 00 00 01 08 46 EA 
   568)       673.7  Rx         0145  3  15 45 40 
   569)       673.9  Rx         0138  8  26 E6 00 00 00 00 00 00 
   570)       675.4  Rx         0027  8  00 00 00 00 00 00 00 00 
   571)       675.7  Rx         002A  8  00 00 00 00 00 00 00 00 
   572)       675.9  Rx         0033  8  00 00 00 00 00 00 00 00 
   573)       676.2  Rx         003A  8  00 00 00 00 00 00 00 00 
   574)       679.8  Rx         0035  8  8F 26 7C 43 7F E8 D0 00 
   575)       680.1  Rx         0025  8  00 00 00 00 00 00 00 00 
   576)       680.3  Rx         0030  8  EA 26 7C 43 7F E8 D0 00 
   577)       685.2  Rx         0050  8  80 00 6F AD 00 00 00 00 
   578)       685.4  Rx         0027  8  80 00 00 00 00 00 00 10 
   579)       685.7  Rx         002A  8  80 00 00 00 00 00 00 00 
   580)       685.9  Rx         0033  8  80 00 00 00 00 00 00 00 
   581)       686.1  Rx         003A  8  80 00 00 00 00 00 00 00 
   582)       689.5  Rx         0035  8  D2 27 7C 43 7F EE 10 00 
   583)       689.8  Rx         0025  8  80 00 00 00 00 00 00 00 
   584)       690.0  Rx         0030  8  B7 27 7C 43 7F EE 10 00 
   585)       690.2  Rx         0040  8  8E ED 00 00 01 4C 47 A6 
   586)       694.6  Rx         057F  4  11 F9 C0 00 
   587)       694.9  Rx         0027  8  00 00 00 00 00 00 00 00 
   588)       695.1  Rx         002A  8  00 00 00 00 00 00 00 00 
   589)       695.4  Rx         0033  8  00 00 00 00 00 00 00 00 
   590)       695.7  Rx         003A  8  00 00 00 00 00 00 00 00 
   591)       695.9  Rx         0250  8  1A 00 00 00 00 00 00 00 
   592)       699.4  Rx         0035  8  D2 27 7C 43 7F E8 10 00 
   593)       699.7  Rx         0025  8  00 00 00 00 00 00 00 00 
   594)       699.9  Rx         0030  8  B7 27 7C 43 7F E8 10 00 
   595)       705.0  Rx         0027  8  80 00 00 00 00 00 00 10 
   596)       705.2  Rx         002A  8  80 00 00 00 00 00 00 00 
   597)       705.5  Rx         0033  8  80 00 00 00 00 00 00 00 
   598)       705.7  Rx         003A  8  80 00 00 00 00 00 00 00 
   599)       709.4  Rx         0035  8  8E 28 7C 43 7F EE 10 00 
   600)       709.7  Rx         0025  8  80 00 00 00 00 00 00 00 
   601)       709.9  Rx         0030  8  EB 28 7C 43 7F EE 10 00 
   602)       710.1  Rx         0040  8  A7 1D 00 00 01 08 48 05 
   603)       714.9  Rx         0027  8  00 00 00 00 00 00 00 00 
   604)       715.1  Rx         002A  8  00 00 00 00 00 00 00 00 
   605)       715.4  Rx         0033  8  00 00 00 00 00 00 00 00 
   606)       715.6  Rx         003A  8  00 00 00 00 00 00 00 00 
   607)       719.6  Rx         0035  8  8E 28 7C 43 7F E8 10 00 
   608)       719.8  Rx         0025  8  00 00 00 00 00 00 00 00 
   609)       720.1  Rx         0030  8  EB 28 7C 43 7F E8 10 00 
   610)       720.3  Rx         0350  8  00 00 00 00 00 00 00 00 
   611)       720.5  Rx         0360  8  00 00 00 00 00 00 00 00 
   612)       725.0  Rx         0050  8  80 00 21 ED 00 00 00 00 
   613)       725.3  Rx         0027  8  80 00 00 00 00 00 00 10 
   614)       725.5  Rx         002A  8  80 00 00 00 00 00 00 00 
   615)       725.7  Rx         0033  8  80 00 00 00 00 00 00 00 
   616)       726.0  Rx         003A  8  80 00 00 00 00 00 00 00 
   617)       729.3  Rx         0035  8  D3 29 7C 43 7F EE D0 00 
   618)       729.5  Rx         0025  8  80 00 00 00 00 00 00 00 
   619)       729.8  Rx         0030  8  B6 29 7C 43 7F EE D0 00 
   620)       730.0  Rx         0040  8  6D 3D 00 00 01 4C 49 49 
   621)       734.8  Rx         0027  8  00 00 00 00 00 00 00 00 
   622)       735.1  Rx         002A  8  00 00 00 00 00 00 00 00 
   623)       735.3  Rx         0033  8  00 00 00 00 00 00 00 00 
   624)       735.6  Rx         003A  8  00 00 00 00 00 00 00 00 
   625)       739.3  Rx         0035  8  D3 29 7C 43 7F E8 10 00 
   626)       739.6  Rx         0025  8  00 00 00 00 00 00 00 00 
   627)       739.8  Rx         0030  8  B6 29 7C 43 7F E8 10 00 
   628)       745.0  Rx         057F  4  11 F9 C0 00 
   629)       745.2  Rx         0027  8  80 00 00 00 00 00 00 10 
   630)       745.5  Rx         002A  8  80 00 00 00 00 00 00 00 
   631)       745.7  Rx         0033  8  80 00 00 00 00 00 00 00 
   632)       746.0  Rx         003A  8  80 00 00 00 00 00 00 00 
   633)       749.6  Rx         0035  8  34 2A 7C 43 7F EE 10 00 
   634)       749.8  Rx         0025  8  80 00 00 00 00 00 00 00 
   635)       750.1  Rx         0030  8  51 2A 7C 43 7F EE 10 00 
   636)       750.3  Rx         0040  8  2E 5D 00 00 01 08 4A 9D 
   637)       754.8  Rx         0130  8  BB 38 20 69 D7 07 95 00 
   638)       755.1  Rx         0027  8  00 00 00 00 00 00 00 00 
   639)       755.3  Rx         002A  8  00 00 00 00 00 00 00 00 
   640)       755.6  Rx         0033  8  00 00 00 00 00 00 00 00 
   641)       755.8  Rx         003A  8  00 00 00 00 00 00 00 00 
   642)       759.4  Rx         0035  8  34 2A 7C 43 7F E8 10 00 
   643)       759.7  Rx         0025  8  00 00 00 00 00 00 00 00 
   644)       759.9  Rx         0030  8  51 2A 7C 43 7F E8 10 00 
   645)       764.9  Rx         0050  8  80 00 6E 3D 00 00 00 00 
   646)       765.1  Rx         0027  8  80 00 00 00 00 00 00 10 
   647)       765.4  Rx         002A  8  80 00 00 00 00 00 00 00 
   648)       765.6  Rx         0033  8  80 00 00 00 00 00 00 00 
   649)       765.9  Rx         003A  8  80 00 00 00 00 00 00 00 
   650)       769.7  Rx         0035  8  69 2B 7C 43 7F EE 10 00 
   651)       769.9  Rx         0025  8  80 00 00 00 00 00 00 00 
   652)       770.2  Rx         0030  8  0C 2B 7C 43 7F EE 10 00 
   653)       770.4  Rx         0040  8  E4 7D 00 00 01 08 4B D1 
   654)       774.8  Rx         0027  8  00 00 00 00 00 00 00 00 
   655)       775.1  Rx         002A  8  00 00 00 00 00 00 00 00 
   656)       775.4  Rx         0033  8  00 00 00 00 00 00 00 00 
   657)       775.6  Rx         003A  8  00 00 00 00 00 00 00 00 
   658)       779.3  Rx         0035  8  69 2B 7C 43 7F E8 D0 00 
   659)       779.5  Rx         0025  8  00 00 00 00 00 00 00 00 
   660)       779.8  Rx         0030  8  0C 2B 7C 43 7F E8 D0 00 
   661)       784.9  Rx         0027  8  80 00 00 00 00 00 00 10 
   662)       785.2  Rx         002A  8  80 00 00 00 00 00 00 00 
   663)       785.4  Rx         0033  8  80 00 00 00 00 00 00 00 
   664)       785.7  Rx         003A  8  80 00 00 00 00 00 00 00 
   665)       789.2  Rx         0140  3  15 45 40 
   666)       789.4  Rx         0135  8  27 37 00 00 00 00 00 00 
   667)       789.7  Rx         0025  8  80 00 00 00 00 00 00 00 
   668)       789.9  Rx         0030  8  82 2C 7C 43 7F EE 10 00 
   669)       790.2  Rx         0035  8  E7 2C 7C 43 7F EE 10 00 
   670)       790.4  Rx         0040  8  A8 9D 00 00 01 4C 4C 28 
   671)       793.7  Rx         0145  3  15 45 40 
   672)       794.0  Rx         0138  8  27 AA 00 00 00 00 00 00 
   673)       794.9  Rx         057F  4  11 F9 C0 00 
   674)       795.2  Rx         0027  8  00 00 00 00 00 00 00 00 
   675)       795.4  Rx         002A  8  00 00 00 00 00 00 00 00 
   676)       795.7  Rx         0033  8  00 00 00 00 00 00 00 00 
   677)       795.9  Rx         003A  8  00 00 00 00 00 00 00 00 
   678)       799.5  Rx         0035  8  E7 2C 7C 43 7F E8 10 00 
   679)       799.8  Rx         0025  8  00 00 00 00 00 00 00 00 
   680)       800.0  Rx         0030  8  82 2C 7C 43 7F E8 10 00 
   681)       804.9  Rx         0050  8  80 00 20 7D 00 00 00 00 
   682)       805.1  Rx         0027  8  80 00 00 00 00 00 00 10 
   683)       805.4  Rx         002A  8  80 00 00 00 00 00 00 00 
   684)       805.6  Rx         0033  8  80 00 00 00 00 00 00 00 
   685)       805.9  Rx         003A  8  80 00 00 00 00 00 00 00 
   686)       809.3  Rx         0035  8  BA 2D 7C 43 7F EE 10 00 
   687)       809.6  Rx         0025  8  80 00 00 00 00 00 00 00 
   688)       809.8  Rx         0030  8  DF 2D 7C 43 7F EE 10 00 
   689)       810.0  Rx         0040  8  62 BD 00 00 01 08 4D 64 
   690)       815.0  Rx         0027  8  00 00 00 00 00 00 00 00 
   691)       815.3  Rx         002A  8  00 00 00 00 00 00 00 00 
   692)       815.6  Rx         0033  8  00 00 00 00 00 00 00 00 
   693)       815.8  Rx         003A  8  00 00 00 00 00 00 00 00 
   694)       819.4  Rx         0035  8  BA 2D 7C 43 7F E8 10 00 
   695)       819.6  Rx         0025  8  00 00 00 00 00 00 00 00 
   696)       819.9  Rx         0030  8  DF 2D 7C 43 7F E8 10 00 
   697)       824.9  Rx         0027  8  00 00 00 00 00 00 00 00 
   698)       825.1  Rx         002A  8  00 00 00 00 00 00 00 00 
   699)       825.4  Rx         0033  8  00 00 00 00 00 00 00 00 
   700)       825.6  Rx         003A  8  00 00 00 00 00 00 00 00 
   701)       829.5  Rx         0035  8  5D 2E 7C 43 7F EE D0 00 
   702)       829.7  Rx         0025  8  80 00 00 00 00 00 00 00 
   703)       830.0  Rx         0030  8  38 2E 7C 43 7F EE D0 00 
   704)       830.2  Rx         0040  8  21 DD 00 00 01 4C 4E B0 
   705)       834.8  Rx         0027  8  80 00 00 00 00 00 00 10 
   706)       835.1  Rx         002A  8  80 00 00 00 00 00 00 00 
   707)       835.3  Rx         0033  8  80 00 00 00 00 00 00 00 
   708)       835.6  Rx         003A  8  80 00 00 00 00 00 00 00 
   709)       839.6  Rx         0035  8  5D 2E 7C 43 7F E8 10 00 
   710)       839.8  Rx         0025  8  00 00 00 00 00 00 00 00 
   711)       840.1  Rx         0030  8  38 2E 7C 43 7F E8 10 00 
   712)       845.1  Rx         0050  8  80 00 F2 BD 00 00 00 00 
   713)       845.4  Rx         0027  8  80 00 00 00 00 00 00 10 
   714)       845.6  Rx         002A  8  80 00 00 00 00 00 00 00 
   715)       845.8  Rx         0033  8  80 00 00 00 00 00 00 00 
   716)       846.1  Rx         003A  8  80 00 00 00 00 00 00 00 
   717)       846.3  Rx         057F  4  11 F9 C0 00 
   718)       849.6  Rx         0035  8  5C 20 7C 43 7F EE 10 00 
   719)       849.8  Rx         0025  8  80 00 00 00 00 00 00 00 
   720)       850.1  Rx         0030  8  39 20 7C 43 7F EE 10 00 
   721)       850.3  Rx         0040  8  C2 0D 00 00 01 08 40 5F 
   722)       854.8  Rx         0027  8  00 00 00 00 00 00 00 00 
   723)       855.0  Rx         002A  8  00 00 00 00 00 00 00 00 
   724)       855.3  Rx         0033  8  00 00 00 00 00 00 00 00 
   725)       855.5  Rx         003A  8  00 00 00 00 00 00 00 00 
   726)       859.2  Rx         0035  8  5C 20 7C 43 7F E8 10 00 
   727)       859.5  Rx         0025  8  00 00 00 00 00 00 00 00 
   728)       859.7  Rx         0030  8  39 20 7C 43 7F E8 10 00 
   729)       864.7  Rx         0027  8  80 00 00 00 00 00 00 10 
   730)       865.0  Rx         002A  8  80 00 00 00 00 00 00 00 
   731)       865.3  Rx         0033  8  80 00 00 00 00 00 00 00 
   732)       865.5  Rx         003A  8  80 00 00 00 00 00 00 00 
   733)       869.7  Rx         0035  8  01 21 7C 43 7F EE 10 00 
   734)       870.0  Rx         0025  8  80 00 00 00 00 00 00 00 
   735)       870.2  Rx         0030  8  64 21 7C 43 7F EE 10 00 
   736)       870.5  Rx         0040  8  08 2D 00 00 01 08 41 13 
   737)       874.8  Rx         0130  8  9B 38 20 69 D7 03 95 00 
   738)       875.0  Rx         0027  8  00 00 00 00 00 00 00 00 
   739)       875.3  Rx         002A  8  00 00 00 00 00 00 00 00 
   740)       875.5  Rx         0033  8  00 00 00 00 00 00 00 00 
   741)       875.8  Rx         003A  8  00 00 00 00 00 00 00 00 
   742)       879.3  Rx         0035  8  01 21 7C 43 7F E8 D0 00 
   743)       879.6  Rx         0025  8  00 00 00 00 00 00 00 00 
   744)       879.8  Rx         0030  8  64 21 7C 43 7F E8 D0 00 
   745)       884.9  Rx         0050  8  80 00 D4 0D 00 00 00 00 
   746)       885.2  Rx         0027  8  80 00 00 00 00 00 00 10 
   747)       885.4  Rx         002A  8  80 00 00 00 00 00 00 00 
   748)       885.7  Rx         0033  8  80 00 00 00 00 00 00 00 
   749)       886.0  Rx         003A  8  80 00 00 00 00 00 00 00 
   750)       889.5  Rx         0035  8  E6 22 7C 43 7F EE 10 00 
   751)       889.7  Rx         0025  8  80 00 00 00 00 00 00 00 
   752)       890.0  Rx         0030  8  83 22 7C 43 7F EE 10 00 
   753)       890.2  Rx         0040  8  4B 4D 00 00 01 4C 42 C7 
   754)       894.7  Rx         057F  4  11 F9 C0 00 
   755)       894.9  Rx         0027  8  00 00 00 00 00 00 00 00 
   756)       895.2  Rx         002A  8  00 00 00 00 00 00 00 00 
